==================================================
±‡∫≈              : 9
–≠“È              : TCP
±æµÿµÿ÷∑          : 192.168.8.2
‘∂≥Ãµÿ÷∑          : 10.97.103.9
±æµÿ∂Àø⁄          : 9001
‘∂≥Ã∂Àø⁄          : 5001
±æµÿ÷˜ª˙          : 
‘∂≥Ã÷˜ª˙          : 
∑˛ŒÒ√˚≥∆          : 
 ˝æ›∞¸ ˝¡ø        : 34  {17 ; 17}
≤ª∫¨∑‚◊∞–≈œ¢µƒ ˝æ›¡ø: 500 ◊÷Ω⁄  {48 ; 452}
∞¸∫¨∑‚◊∞–≈œ¢µƒ◊‹ ˝æ›¡ø: 1,908 ◊÷Ω⁄  {728 ; 1,180}
 ˝æ›ÀŸ¬           : 0.0 KB/√Î
≤∂ªÒ ±º‰          : 2011-1-14 15:25:35:765
◊ÓΩ¸≤∂ªÒ∞¸µƒ ±º‰  : 2011-1-14 15:37:23:984
±æª˙ MAC µÿ÷∑     : 
‘∂∂À MAC µÿ÷∑     : 
±æª˙ IP À˘ Ùπ˙    : 
‘∂∂À IP À˘ Ùπ˙    : 
==================================================

00000000  01 04 00 00 00 32 71 DF                            .....2qﬂ 

00000000  01 04 64 07 DB 00 01 00  0E 00 0F 00 08 00 15 00   ..d.€... ........ 
00000010  00 03 AE 02 69 02 9F 02  13 02 18 01 EA 01 66 00   ..Æ.i.ü. ....Í.f. 
00000020  DA 03 92 00 A8 8A F7 43  01 00 03 38 42 C2 1A 41   ⁄.í.®ä˜C ...8B¬.A 
00000030  8A 00 05 8E 4B C7 5A 40  BF 00 00 25 DC 00 00 00   ä..éK«Z@ ø..%‹... 
00000040  00 1D 68 43 A7 00 07 3A  DC DF 73 41 99 00 1A 03   ..hCß..: ‹ﬂsAô... 
00000050  6A 00 01 00 00 00 0B 00  00 00 00 00 00 00 00 00   j....... ........ 
00000060  00 03 84 00 00 00 00 11  F8                        ..Ñ..... ¯

00000000  01 02 00 00 00 20 79 D2                            ..... y“ 

00000000  01 02 04 0B 00 00 00 F9  C6 7B 01 00 16 31 35 31   .......˘ ∆{...151 
00000010  37 36 36 35 36 39 30 31  0A 61 67 09 13 89 7B 7B   76656901 .ag..â{{ 
00000020  01 00 16 31 35 31 37 36  36 35 36 39 30 31 0A 61   ...15176 656901.a 
00000030  67 09 13 89 7B                                     g..â{

00000000  01 04 00 00 00 32 71 DF                            .....2qﬂ 

00000000  01 04 64 07 DB 00 01 00  0E 00 0F 00 0D 00 15 00   ..d.€... ........ 
00000010  00 03 B3 02 68 02 A1 02  14 02 16 01 EA 01 67 00   ..≥.h.°. ....Í.g. 
00000020  DC 03 91 00 A9 8A F7 43  01 00 03 38 4B 60 52 41   ‹.ë.©ä˜C ...8K`RA 
00000030  8D 00 05 8E 5D C2 A1 40  CF 00 00 25 DD 00 00 00   ç..é]¬°@ œ..%›... 
00000040  00 6C 61 43 A6 00 07 3A  F7 2D 4E 41 9A 00 1A 03   .laC¶..: ˜-NAö... 
00000050  6A 00 01 00 00 00 0B 00  00 00 00 00 00 00 00 00   j....... ........ 
00000060  00 03 84 00 00 00 00 B9  9D                        ..Ñ....π ù

00000000  01 02 00 00 00 20 79 D2                            ..... y“ 

00000000  01 02 04 0B 00 00 00 F9  C6 7B 01 00 16 31 35 31   .......˘ ∆{...151 
00000010  37 36 36 35 36 39 30 31  0A 61 67 09 13 89 7B 7B   76656901 .ag..â{{ 
00000020  01 00 16 31 35 31 37 36  36 35 36 39 30 31 0A 61   ...15176 656901.a 
00000030  67 09 13 89 7B                                     g..â{

00000000  01 04 00 00 00 32 71 DF                            .....2qﬂ 

00000000  01 04 64 07 DB 00 01 00  0E 00 0F 00 12 00 16 00   ..d.€... ........ 
00000010  00 03 B2 02 67 02 A2 02  13 02 16 01 E6 01 69 00   ..≤.g.¢. ....Ê.i. 
00000020  DE 03 92 00 A9 9E EE 43  00 00 03 38 54 70 C5 41   ﬁ.í.©ûÓC ...8Tp≈A 
00000030  8C 00 05 8E 72 D3 0E 40  DA 00 00 25 DE 00 00 00   å..ér”.@ ⁄..%ﬁ... 
00000040  00 1D 68 43 A7 00 07 3B  13 D9 47 41 9C 00 1A 03   ..hCß..; .ŸGAú... 
00000050  6A 00 00 00 01 00 0B 00  00 00 00 00 00 00 00 00   j....... ........ 
00000060  00 03 84 00 00 00 00 5F  74                        ..Ñ...._ t

00000000  01 02 00 00 00 20 79 D2                            ..... y“ 

00000000  01 02 04 0B 00 00 00 F9  C6 7B 01 00 16 31 35 31   .......˘ ∆{...151 
00000010  37 36 36 35 36 39 30 31  0A 61 67 09 13 89 7B      76656901 .ag..â{


==================================================
±‡∫≈              : 7
–≠“È              : TCP
±æµÿµÿ÷∑          : 192.168.8.2
‘∂≥Ãµÿ÷∑          : 10.97.103.8
±æµÿ∂Àø⁄          : 9001
‘∂≥Ã∂Àø⁄          : 5001
±æµÿ÷˜ª˙          : 
‘∂≥Ã÷˜ª˙          : 
∑˛ŒÒ√˚≥∆          : 
 ˝æ›∞¸ ˝¡ø        : 34  {17 ; 17}
≤ª∫¨∑‚◊∞–≈œ¢µƒ ˝æ›¡ø: 500 ◊÷Ω⁄  {48 ; 452}
∞¸∫¨∑‚◊∞–≈œ¢µƒ◊‹ ˝æ›¡ø: 1,908 ◊÷Ω⁄  {728 ; 1,180}
 ˝æ›ÀŸ¬           : 0.0 KB/√Î
≤∂ªÒ ±º‰          : 2011-1-14 15:25:35:765
◊ÓΩ¸≤∂ªÒ∞¸µƒ ±º‰  : 2011-1-14 15:37:23:875
±æª˙ MAC µÿ÷∑     : 
‘∂∂À MAC µÿ÷∑     : 
±æª˙ IP À˘ Ùπ˙    : 
‘∂∂À IP À˘ Ùπ˙    : 
==================================================

00000000  01 04 00 00 00 32 71 DF                            .....2qﬂ 

00000000  01 04 64 07 DB 00 01 00  0E 00 0E 00 2F 00 39 00   ..d.€... ..../.9. 
00000010  53 03 A0 02 60 02 7B 02  52 01 D4 01 93 01 AD 01   S.†.`.{. R.‘.ì.≠. 
00000020  07 03 C6 00 B3 56 A5 42  B7 00 01 E2 93 00 11 41   ..∆.≥V•B ∑..‚ì..A 
00000030  41 00 04 2C 97 06 C9 3E  B1 00 00 03 12 00 00 00   A..,ó.…> ±....... 
00000040  00 65 0D 43 A0 00 06 11  90 A4 5F 40 AB 00 0A 83   .e.C†... ê§_@´..É 
00000050  EA 00 00 00 00 00 0F 00  00 00 00 00 00 00 00 00   Í....... ........ 
00000060  00 03 84 00 00 00 00 9F  7A                        ..Ñ....ü z

00000000  01 02 00 00 00 20 79 D2                            ..... y“ 

00000000  01 02 04 0F 00 00 00 F8  F6 7B 01 00 16 31 35 31   .......¯ ˆ{...151 
00000010  37 36 36 35 36 39 31 30  0A 61 67 08 13 89 7B 7B   76656910 .ag..â{{ 
00000020  01 00 16 31 35 31 37 36  36 35 36 39 31 30 0A 61   ...15176 656910.a 
00000030  67 08 13 89 7B                                     g..â{

00000000  01 04 00 00 00 32 71 DF                            .....2qﬂ 

00000000  01 04 64 07 DB 00 01 00  0E 00 0E 00 34 00 37 00   ..d.€... ....4.7. 
00000010  53 03 9F 02 5F 02 7C 02  51 01 D1 01 90 01 AD 01   S.ü._.|. Q.—.ê.≠. 
00000020  07 03 C6 00 B3 7E 93 42  B5 00 01 E2 9A 1B F8 41   ..∆.≥~ìB µ..‚ö.¯A 
00000030  3F 00 04 2C A3 31 13 3E  A7 00 00 03 12 00 00 00   ?..,£1.> ß....... 
00000040  00 EF 09 43 9F 00 06 11  AB 02 A0 40 B3 00 0A 83   .Ô.Cü... ´.†@≥..É 
00000050  EA 00 00 00 00 00 0F 00  00 00 00 00 00 00 00 00   Í....... ........ 
00000060  00 03 84 00 00 00 00 E7  9C                        ..Ñ....Á ú

00000000  01 02 00 00 00 20 79 D2                            ..... y“ 

00000000  01 02 04 0F 00 00 00 F8  F6 7B 01 00 16 31 35 31   .......¯ ˆ{...151 
00000010  37 36 36 35 36 39 31 30  0A 61 67 08 13 89 7B 7B   76656910 .ag..â{{ 
00000020  01 00 16 31 35 31 37 36  36 35 36 39 31 30 0A 61   ...15176 656910.a 
00000030  67 08 13 89 7B                                     g..â{

00000000  01 04 00 00 00 32 71 DF                            .....2qﬂ 

00000000  01 04 64 07 DB 00 01 00  0E 00 0E 00 39 00 38 00   ..d.€... ....9.8. 
00000010  53 03 9D 02 61 02 79 02  53 01 CD 01 90 01 AC 01   S.ù.a.y. S.Õ.ê.¨. 
00000020  08 03 C6 00 B4 A6 81 42  B3 00 01 E2 A1 03 69 41   ..∆.¥¶ÅB ≥..‚°.iA 
00000030  3B 00 04 2C AF 87 EA 3E  CE 00 00 03 12 00 00 00   ;..,ØáÍ> Œ....... 
00000040  00 EF 09 43 9F 00 06 11  C7 63 45 40 9F 00 0A 83   .Ô.Cü... «cE@ü..É 
00000050  EA 00 00 00 00 00 0F 00  00 00 00 00 00 00 00 00   Í....... ........ 
00000060  00 03 84 00 00 00 00 B1  21                        ..Ñ....± !

00000000  01 02 00 00 00 20 79 D2                            ..... y“ 

00000000  01 02 04 0F 00 00 00 F8  F6 7B 01 00 16 31 35 31   .......¯ ˆ{...151 
00000010  37 36 36 35 36 39 31 30  0A 61 67 08 13 89 7B      76656910 .ag..â{


==================================================
±‡∫≈              : 11
–≠“È              : TCP
±æµÿµÿ÷∑          : 192.168.8.2
‘∂≥Ãµÿ÷∑          : 10.97.103.7
±æµÿ∂Àø⁄          : 9001
‘∂≥Ã∂Àø⁄          : 5001
±æµÿ÷˜ª˙          : 
‘∂≥Ã÷˜ª˙          : 
∑˛ŒÒ√˚≥∆          : 
 ˝æ›∞¸ ˝¡ø        : 33  {16 ; 17}
≤ª∫¨∑‚◊∞–≈œ¢µƒ ˝æ›¡ø: 500 ◊÷Ω⁄  {48 ; 452}
∞¸∫¨∑‚◊∞–≈œ¢µƒ◊‹ ˝æ›¡ø: 1,868 ◊÷Ω⁄  {688 ; 1,180}
 ˝æ›ÀŸ¬           : 0.0 KB/√Î
≤∂ªÒ ±º‰          : 2011-1-14 15:25:35:765
◊ÓΩ¸≤∂ªÒ∞¸µƒ ±º‰  : 2011-1-14 15:37:23:328
±æª˙ MAC µÿ÷∑     : 
‘∂∂À MAC µÿ÷∑     : 
±æª˙ IP À˘ Ùπ˙    : 
‘∂∂À IP À˘ Ùπ˙    : 
==================================================

00000000  01 04 00 00 00 32 71 DF                            .....2qﬂ 

00000000  01 04 64 07 DB 00 01 00  0D 00 0C 00 00 00 12 00   ..d.€... ........ 
00000010  00 03 BF 02 76 02 AD 02  36 01 E4 01 CC 01 B6 00   ..ø.v.≠. 6.‰.Ã.∂. 
00000020  DF 03 A0 00 B2 C1 8D 42  90 00 01 99 D7 91 A0 41   ﬂ.†.≤¡çB ê..ô◊ë†A 
00000030  1C 00 02 8D A3 B2 35 40  44 00 00 14 2B 00 00 00   ...ç£≤5@ D...+... 
00000040  00 86 26 43 54 00 04 BB  15 5F D1 41 25 00 10 76   .Ü&CT..ª ._—A%..v 
00000050  BB 00 02 00 02 00 09 00  00 00 00 00 00 00 00 00   ª....... ........ 
00000060  00 03 84 00 00 00 00 8F  BA                        ..Ñ....è ∫

00000000  01 02 00 00 00 20 79 D2                            ..... y“ 

00000000  01 02 04 09 00 00 00 F8  7E 7B 01 00 16 31 35 31   .......¯ ~{...151 
00000010  37 36 36 35 37 30 32 36  0A 61 67 07 13 89 7B 7B   76657026 .ag..â{{ 
00000020  01 00 16 31 35 31 37 36  36 35 37 30 32 36 0A 61   ...15176 657026.a 
00000030  67 07 13 89 7B                                     g..â{

00000000  01 04 00 00 00 32 71 DF                            .....2qﬂ 

00000000  01 04 64 07 DB 00 01 00  0D 00 0C 00 05 00 13 00   ..d.€... ........ 
00000010  00 03 BD 02 75 02 AC 02  35 01 E2 01 C9 01 BD 00   ..Ω.u.¨. 5.‚.….Ω. 
00000020  D7 03 A1 00 B2 C1 8D 42  90 00 01 99 DE 32 98 41   ◊.°.≤¡çB ê..ôﬁ2òA 
00000030  1C 00 02 8D AF 1E 31 40  67 00 00 14 2B 00 00 00   ...çØ.1@ g...+... 
00000040  00 36 4A 43 58 00 04 BB  28 48 F7 41 28 00 10 76   .6JCX..ª (H˜A(..v 
00000050  BB 00 02 00 02 00 09 00  00 00 00 00 00 00 00 00   ª....... ........ 
00000060  00 03 84 00 00 00 00 0C  BC                        ..Ñ..... º

00000000  01 02 00 00 00 20 79 D2                            ..... y“ 

00000000  01 02 04 09 00 00 00 F8  7E 7B 01 00 16 31 35 31   .......¯ ~{...151 
00000010  37 36 36 35 37 30 32 36  0A 61 67 07 13 89 7B 7B   76657026 .ag..â{{ 
00000020  01 00 16 31 35 31 37 36  36 35 37 30 32 36 0A 61   ...15176 657026.a 
00000030  67 07 13 89 7B                                     g..â{

00000000  01 04 00 00 00 32 71 DF                            .....2qﬂ 

00000000  01 04 64 07 DB 00 01 00  0D 00 0C 00 0A 00 13 00   ..d.€... ........ 
00000010  00 03 BE 02 74 02 AE 02  35 01 E1 01 C9 01 A3 00   ..æ.t.Æ. 5.·.….£. 
00000020  E6 03 A0 00 B2 D5 83 42  8F 00 01 99 E5 0E A6 41   Ê.†.≤’ÉB è..ôÂ.¶A 
00000030  1C 00 02 8D BA 0D C5 40  5C 00 00 14 2C 00 00 00   ...ç∫.≈@ \...,... 
00000040  00 86 26 43 54 00 04 BB  3A EF 43 41 27 00 10 76   .Ü&CT..ª :ÔCA'..v 
00000050  BB 00 02 00 02 00 09 00  00 00 00 00 00 00 00 00   ª....... ........ 
00000060  00 03 84 00 00 00 00 AB  62                        ..Ñ....´ b

00000000  01 02 00 00 00 20 79 D2                            ..... y“ 

00000000  01 02 04 09 00 00 00 F8  7E 7B 01 00 16 31 35 31   .......¯ ~{...151 
00000010  37 36 36 35 37 30 32 36  0A 61 67 07 13 89 7B      76657026 .ag..â{


==================================================
±‡∫≈              : 13
–≠“È              : TCP
±æµÿµÿ÷∑          : 192.168.8.2
‘∂≥Ãµÿ÷∑          : 10.97.103.6
±æµÿ∂Àø⁄          : 9001
‘∂≥Ã∂Àø⁄          : 5001
±æµÿ÷˜ª˙          : 
‘∂≥Ã÷˜ª˙          : 
∑˛ŒÒ√˚≥∆          : 
 ˝æ›∞¸ ˝¡ø        : 16  {8 ; 8}
≤ª∫¨∑‚◊∞–≈œ¢µƒ ˝æ›¡ø: 176 ◊÷Ω⁄  {0 ; 176}
∞¸∫¨∑‚◊∞–≈œ¢µƒ◊‹ ˝æ›¡ø: 878 ◊÷Ω⁄  {320 ; 558}
 ˝æ›ÀŸ¬           : 0.0 KB/√Î
≤∂ªÒ ±º‰          : 2011-1-14 15:25:46:406
◊ÓΩ¸≤∂ªÒ∞¸µƒ ±º‰  : 2011-1-14 15:37:33:625
±æª˙ MAC µÿ÷∑     : 
‘∂∂À MAC µÿ÷∑     : 
±æª˙ IP À˘ Ùπ˙    : 
‘∂∂À IP À˘ Ùπ˙    : 
==================================================

00000000  7B 01 00 16 31 35 31 37  36 36 35 37 30 35 39 0A   {...1517 6657059. 
00000010  61 67 06 13 89 7B 7B 01  00 16 31 35 31 37 36 36   ag..â{{. ..151766 
00000020  35 37 30 35 39 0A 61 67  06 13 89 7B 7B 01 00 16   57059.ag ..â{{... 
00000030  31 35 31 37 36 36 35 37  30 35 39 0A 61 67 06 13   15176657 059.ag.. 
00000040  89 7B 7B 01 00 16 31 35  31 37 36 36 35 37 30 35   â{{...15 17665705 
00000050  39 0A 61 67 06 13 89 7B  7B 01 00 16 31 35 31 37   9.ag..â{ {...1517 
00000060  36 36 35 37 30 35 39 0A  61 67 06 13 89 7B 7B 01   6657059. ag..â{{. 
00000070  00 16 31 35 31 37 36 36  35 37 30 35 39 0A 61 67   ..151766 57059.ag 
00000080  06 13 89 7B 7B 01 00 16  31 35 31 37 36 36 35 37   ..â{{... 15176657 
00000090  30 35 39 0A 61 67 06 13  89 7B 7B 01 00 16 31 35   059.ag.. â{{...15 
000000A0  31 37 36 36 35 37 30 35  39 0A 61 67 06 13 89 7B   17665705 9.ag..â{ 


==================================================
±‡∫≈              : 5
–≠“È              : TCP
±æµÿµÿ÷∑          : 192.168.8.2
‘∂≥Ãµÿ÷∑          : 10.97.103.20
±æµÿ∂Àø⁄          : 9001
‘∂≥Ã∂Àø⁄          : 5001
±æµÿ÷˜ª˙          : 
‘∂≥Ã÷˜ª˙          : 
∑˛ŒÒ√˚≥∆          : 
 ˝æ›∞¸ ˝¡ø        : 58  {29 ; 29}
≤ª∫¨∑‚◊∞–≈œ¢µƒ ˝æ›¡ø: 890 ◊÷Ω⁄  {96 ; 794}
∞¸∫¨∑‚◊∞–≈œ¢µƒ◊‹ ˝æ›¡ø: 3,258 ◊÷Ω⁄  {1,256 ; 2,002}
 ˝æ›ÀŸ¬           : 0.0 KB/√Î
≤∂ªÒ ±º‰          : 2011-1-14 15:25:35:765
◊ÓΩ¸≤∂ªÒ∞¸µƒ ±º‰  : 2011-1-14 15:37:29:234
±æª˙ MAC µÿ÷∑     : 
‘∂∂À MAC µÿ÷∑     : 
±æª˙ IP À˘ Ùπ˙    : 
‘∂∂À IP À˘ Ùπ˙    : 
==================================================

00000000  01 04 00 00 00 32 71 DF                            .....2qﬂ 

00000000  01 04 64 07 DB 00 01 00  0E 00 0F 00 10 00 24 00   ..d.€... ......$. 
00000010  00 03 AD 02 9E 02 DA 02  27 02 95 02 09 01 F2 00   ..≠.û.⁄. '.ï...Ú. 
00000020  FA 03 DA 00 99 2D 89 44  33 00 0E 63 96 A7 98 42   ˙.⁄.ô-âD 3..cñßòB 
00000030  9F 00 02 D5 F1 BA 78 41  28 00 00 48 2B 00 00 00   ü..’Ò∫xA (..H+... 
00000040  00 D6 01 43 D0 00 08 C6  31 AB 3F 41 F4 00 01 15   .÷.C–..∆ 1´?AÙ... 
00000050  02 00 03 00 03 00 0F 00  00 00 00 00 00 00 00 00   ........ ........ 
00000060  00 02 17 00 00 00 00 E7  14                        .......Á .

00000000  01 02 00 00 00 20 79 D2                            ..... y“ 

00000000  01 02 04 0F 00 00 00 F8  F6                        .......¯ ˆ

00000000  02 04 00 00 00 32 71 EC                            .....2qÏ 

00000000  02 04 64 07 DB 00 01 00  0A 00 0B 00 1E 00 21 00   ..d.€... ......!. 
00000010  00 00 00 00 00 02 81 02  0B 00 00 00 00 01 CA 00   ......Å. ...... . 
00000020  E3 03 BB 00 01 00 00 00  00 00 00 01 C4 00 00 00   „.ª..... ....ƒ... 
00000030  00 00 00 00 00 C1 73 41  53 00 00 46 8E 00 00 00   .....¡sA S..Fé... 
00000040  00 1C 21 43 EE 00 09 AB  34 2B FE 41 B9 00 00 D0   ..!CÓ..´ 4+˛Aπ..– 
00000050  6B 00 02 00 02 00 0F 00  00 00 00 00 00 00 00 00   k....... ........ 
00000060  00 03 20 00 00 00 00 D5  20                        .. ....’  

00000000  02 02 00 00 00 20 79 E1                            ..... y· 

00000000  02 02 04 0F 00 00 00 CB  F6 7B 01 00 16 31 35 31   .......À ˆ{...151 
00000010  37 36 36 35 38 35 33 33  0A 61 67 14 13 89 7B 7B   76658533 .ag..â{{ 
00000020  01 00 16 31 35 31 37 36  36 35 38 35 33 33 0A 61   ...15176 658533.a 
00000030  67 14 13 89 7B                                     g..â{

00000000  01 04 00 00 00 32 71 DF                            .....2qﬂ 

00000000  01 04 64 07 DB 00 01 00  0E 00 0F 00 15 00 25 00   ..d.€... ......%. 
00000010  00 03 B0 02 9E 02 DA 02  26 02 93 02 06 01 EF 00   ..∞.û.⁄. &.ì...Ô. 
00000020  F7 03 DA 00 99 2D 89 44  33 00 0E 63 CE 2F 17 42   ˜.⁄.ô-âD 3..cŒ/.B 
00000030  A1 00 02 D6 4E 7C 37 41  33 00 00 48 2C 00 00 00   °..÷N|7A 3..H,... 
00000040  00 FD 0D 43 D1 00 08 C6  56 50 78 41 F7 00 01 15   .˝.C—..∆ VPxA˜... 
00000050  25 00 03 00 03 00 0F 00  00 00 00 00 00 00 00 00   %....... ........ 
00000060  00 02 17 00 00 00 00 66  9F                        .......f ü

00000000  01 02 00 00 00 20 79 D2                            ..... y“ 

00000000  01 02 04 0F 00 00 00 F8  F6                        .......¯ ˆ

00000000  02 04 00 00 00 32 71 EC                            .....2qÏ 

00000000  02 04 64 07 DB 00 01 00  0A 00 0B 00 23 00 20 00   ..d.€... ....#. . 
00000010  00 00 00 00 00 02 82 02  0B 00 00 00 00 01 C9 00   ......Ç. ......…. 
00000020  E3 03 BB 00 01 00 00 00  00 00 00 01 C4 00 00 00   „.ª..... ....ƒ... 
00000030  00 00 00 00 00 5E CF 41  54 00 00 46 8F 00 00 00   .....^œA T..Fè... 
00000040  00 57 23 43 EE 00 09 AB  59 C7 65 41 BA 00 00 D0   .W#CÓ..´ Y«eA∫..– 
00000050  86 00 02 00 02 00 0F 00  00 00 00 00 00 00 00 00   Ü....... ........ 
00000060  00 03 20 00 00 00 00 0B  CF                        .. ..... œ

00000000  02 02 00 00 00 20 79 E1                            ..... y· 

00000000  02 02 04 0F 00 00 00 CB  F6 7B 01 00 16 31 35 31   .......À ˆ{...151 
00000010  37 36 36 35 38 35 33 33  0A 61 67 14 13 89 7B 7B   76658533 .ag..â{{ 
00000020  01 00 16 31 35 31 37 36  36 35 38 35 33 33 0A 61   ...15176 658533.a 
00000030  67 14 13 89 7B                                     g..â{

00000000  01 04 00 00 00 32 71 DF                            .....2qﬂ 

00000000  01 04 64 07 DB 00 01 00  0E 00 0F 00 1A 00 25 00   ..d.€... ......%. 
00000010  00 03 AE 02 9E 02 DA 02  27 02 92 02 04 01 F5 00   ..Æ.û.⁄. '.í...ı. 
00000020  FB 03 DA 00 98 90 2E 44  32 00 0E 64 06 9D 76 42   ˚.⁄.òê.D 2..d.ùvB 
00000030  9F 00 02 D6 AB E2 66 41  26 00 00 48 2D 00 00 00   ü..÷´‚fA &..H-... 
00000040  00 C2 0A 43 D1 00 08 C6  7B BF C8 41 F5 00 01 15   .¬.C—..∆ {ø»Aı... 
00000050  48 00 03 00 03 00 0F 00  00 00 00 00 00 00 00 00   H....... ........ 
00000060  00 02 17 00 00 00 00 EF  F6                        .......Ô ˆ

00000000  01 02 00 00 00 20 79 D2                            ..... y“ 

00000000  01 02 04 0F 00 00 00 F8  F6                        .......¯ ˆ

00000000  02 04 00 00 00 32 71 EC                            .....2qÏ 

00000000  02 04 64 07 DB 00 01 00  0A 00 0B 00 28 00 1F 00   ..d.€... ....(... 
00000010  00 00 00 00 00 02 81 02  0B 00 00 00 00 01 C9 00   ......Å. ......…. 
00000020  E2 03 BB 00 01 00 00 00  00 00 00 01 C4 00 00 00   ‚.ª..... ....ƒ... 
00000030  00 00 00 00 00 99 85 41  55 00 00 46 91 00 00 00   .....ôÖA U..Fë... 
00000040  00 1C 21 43 EE 00 09 AB  7E 2B FE 41 B9 00 00 D0   ..!CÓ..´ ~+˛Aπ..– 
00000050  A1 00 02 00 02 00 0F 00  00 00 00 00 00 00 00 00   °....... ........ 
00000060  00 03 20 00 00 00 00 47  4C                        .. ....G L

00000000  02 02 00 00 00 20 79 E1                            ..... y· 

00000000  02 02 04 0F 00 00 00 CB  F6 7B 01 00 16 31 35 31   .......À ˆ{...151 
00000010  37 36 36 35 38 35 33 33  0A 61 67 14 13 89 7B      76658533 .ag..â{


==================================================
±‡∫≈              : 6
–≠“È              : TCP
±æµÿµÿ÷∑          : 192.168.8.2
‘∂≥Ãµÿ÷∑          : 10.97.103.19
±æµÿ∂Àø⁄          : 9001
‘∂≥Ã∂Àø⁄          : 5001
±æµÿ÷˜ª˙          : 
‘∂≥Ã÷˜ª˙          : 
∑˛ŒÒ√˚≥∆          : 
 ˝æ›∞¸ ˝¡ø        : 56  {27 ; 29}
≤ª∫¨∑‚◊∞–≈œ¢µƒ ˝æ›¡ø: 890 ◊÷Ω⁄  {96 ; 794}
∞¸∫¨∑‚◊∞–≈œ¢µƒ◊‹ ˝æ›¡ø: 3,178 ◊÷Ω⁄  {1,176 ; 2,002}
 ˝æ›ÀŸ¬           : 0.0 KB/√Î
≤∂ªÒ ±º‰          : 2011-1-14 15:25:35:765
◊ÓΩ¸≤∂ªÒ∞¸µƒ ±º‰  : 2011-1-14 15:37:29:234
±æª˙ MAC µÿ÷∑     : 
‘∂∂À MAC µÿ÷∑     : 
±æª˙ IP À˘ Ùπ˙    : 
‘∂∂À IP À˘ Ùπ˙    : 
==================================================

00000000  01 04 00 00 00 32 71 DF                            .....2qﬂ 

00000000  01 04 64 07 DB 00 01 00  0E 00 0E 00 39 00 22 00   ..d.€... ....9.". 
00000010  11 03 C6 02 8E 02 B5 02  21 01 BE 01 73 01 AA 01   ..∆.é.µ. !.æ.s.™. 
00000020  4F 03 87 00 AF 8E 4F 43  97 00 08 A6 82 96 53 42   O.á.ØéOC ó..¶ÇñSB 
00000030  1B 00 09 5B B8 00 00 00  00 00 00 05 55 00 00 00   ...[∏... ....U... 
00000040  00 0B 36 43 A2 00 06 2C  A4 19 EE 41 9D 00 04 49   ..6C¢.., §.ÓAù..I 
00000050  CC 00 00 00 00 00 1F 00  00 00 00 00 00 00 00 00   Ã....... ........ 
00000060  00 03 84 00 00 00 00 64  3D                        ..Ñ....d =

00000000  01 02 00 00 00 20 79 D2                            ..... y“ 

00000000  01 02 04 1F 00 00 00 FC  36                        .......¸ 6

00000000  02 04 00 00 00 32 71 EC                            .....2qÏ 

00000000  02 04 64 07 DB 00 01 00  0E 00 0F 00 13 00 1E FC   ..d.€... .......¸ 
00000010  18 00 00 00 00 02 DE 02  11 00 00 00 00 01 C3 01   ......ﬁ. ......√. 
00000020  5D 03 BD 00 00 00 00 00  00 00 00 00 00 00 00 00   ].Ω..... ........ 
00000030  00 00 00 00 00 00 00 00  00 00 00 00 00 00 00 00   ........ ........ 
00000040  00 5C D7 43 98 00 06 5E  10 17 F6 41 CC 00 10 30   .\◊Cò..^ ..ˆAÃ..0 
00000050  37 00 01 00 01 00 0F 00  80 00 00 00 00 00 00 00   7....... Ä....... 
00000060  00 03 84 00 00 00 00 02  C3                        ..Ñ..... √

00000000  02 02 00 00 00 20 79 E1                            ..... y· 

00000000  02 02 04 0F 00 80 00 AA  36 7B 01 00 16 31 35 31   .....Ä.™ 6{...151 
00000010  37 36 36 35 38 37 36 37  0A 61 67 13 13 89 7B 7B   76658767 .ag..â{{ 
00000020  01 00 16 31 35 31 37 36  36 35 38 37 36 37 0A 61   ...15176 658767.a 
00000030  67 13 13 89 7B                                     g..â{

00000000  01 04 00 00 00 32 71 DF                            .....2qﬂ 

00000000  01 04 64 07 DB 00 01 00  0E 00 0F 00 02 00 21 00   ..d.€... ......!. 
00000010  13 03 C9 02 8F 02 B4 02  20 01 BB 01 72 01 A9 01   ..….è.¥.  .ª.r.©. 
00000020  4E 03 85 00 AF CF 6A 43  93 00 08 A6 94 8A 25 42   N.Ö.ØœjC ì..¶îä%B 
00000030  18 00 09 5B DB 00 00 00  00 00 00 05 55 00 00 00   ...[€... ....U... 
00000040  00 BC 3D 43 A2 00 06 2C  C0 D0 74 41 9D 00 04 49   .º=C¢.., ¿–tAù..I 
00000050  D2 00 00 00 00 00 1F 00  00 00 00 00 00 00 00 00   “....... ........ 
00000060  00 03 84 00 00 00 00 0C  87                        ..Ñ..... á

00000000  01 02 00 00 00 20 79 D2                            ..... y“ 

00000000  01 02 04 1F 00 00 00 FC  36                        .......¸ 6

00000000  02 04 00 00 00 32 71 EC                            .....2qÏ 

00000000  02 04 64 07 DB 00 01 00  0E 00 0F 00 18 00 1F FC   ..d.€... .......¸ 
00000010  18 00 00 00 00 02 DC 02  14 00 00 00 00 01 C0 01   ......‹. ......¿. 
00000020  5B 03 BC 00 00 00 00 00  00 00 00 00 00 00 00 00   [.º..... ........ 
00000030  00 00 00 00 00 00 00 00  00 00 00 00 00 00 00 00   ........ ........ 
00000040  00 E6 D3 43 97 00 06 5E  2C E7 08 41 C6 00 10 30   .Ê”Có..^ ,Á.A∆..0 
00000050  58 00 01 00 01 00 0F 00  80 00 00 00 00 00 00 00   X....... Ä....... 
00000060  00 03 84 00 00 00 00 72  4B                        ..Ñ....r K

00000000  02 02 00 00 00 20 79 E1                            ..... y· 

00000000  02 02 04 0F 00 80 00 AA  36 7B 01 00 16 31 35 31   .....Ä.™ 6{...151 
00000010  37 36 36 35 38 37 36 37  0A 61 67 13 13 89 7B 7B   76658767 .ag..â{{ 
00000020  01 00 16 31 35 31 37 36  36 35 38 37 36 37 0A 61   ...15176 658767.a 
00000030  67 13 13 89 7B                                     g..â{

00000000  01 04 00 00 00 32 71 DF                            .....2qﬂ 

00000000  01 04 64 07 DB 00 01 00  0E 00 0F 00 07 00 21 00   ..d.€... ......!. 
00000010  0C 03 C7 02 91 02 B4 02  1F 01 B7 01 6F 01 A9 01   ..«.ë.¥. ..∑.o.©. 
00000020  4E 03 85 00 AF 21 D5 43  98 00 08 A6 A7 33 9D 42   N.Ö.Ø!’C ò..¶ß3ùB 
00000030  1B 00 09 5B FE 00 00 00  00 00 00 05 55 00 00 00   ...[˛... ....U... 
00000040  00 46 38 43 A2 00 06 2C  DC 5F 9D 41 9E 00 04 49   .F8C¢.., ‹_ùAû..I 
00000050  D8 00 00 00 00 00 1F 00  00 00 00 00 00 00 00 00   ÿ....... ........ 
00000060  00 03 84 00 00 00 00 A9  9B                        ..Ñ....© õ

00000000  01 02 00 00 00 20 79 D2                            ..... y“ 

00000000  01 02 04 1F 00 00 00 FC  36                        .......¸ 6

00000000  02 04 00 00 00 32 71 EC                            .....2qÏ 

00000000  02 04 64 07 DB 00 01 00  0E 00 0F 00 1D 00 1E FC   ..d.€... .......¸ 
00000010  18 00 00 00 00 02 DE 02  14 00 00 00 00 01 AC 01   ......ﬁ. ......¨. 
00000020  4A 03 BE 00 00 00 00 00  00 00 00 00 00 00 00 00   J.æ..... ........ 
00000030  00 00 00 00 00 00 00 00  00 00 00 00 00 00 00 00   ........ ........ 
00000040  00 21 D5 43 98 00 06 5E  48 FC A6 41 C8 00 10 30   .!’Cò..^ H¸¶A»..0 
00000050  78 00 01 00 01 00 0F 00  80 00 00 00 00 00 00 00   x....... Ä....... 
00000060  00 03 84 00 00 00 00 57  1C                        ..Ñ....W .

00000000  02 02 00 00 00 20 79 E1                            ..... y· 

00000000  02 02 04 0F 00 80 00 AA  36 7B 01 00 16 31 35 31   .....Ä.™ 6{...151 
00000010  37 36 36 35 38 37 36 37  0A 61 67 13 13 89 7B      76658767 .ag..â{


==================================================
±‡∫≈              : 4
–≠“È              : TCP
±æµÿµÿ÷∑          : 192.168.8.2
‘∂≥Ãµÿ÷∑          : 10.97.103.18
±æµÿ∂Àø⁄          : 9001
‘∂≥Ã∂Àø⁄          : 5001
±æµÿ÷˜ª˙          : 
‘∂≥Ã÷˜ª˙          : 
∑˛ŒÒ√˚≥∆          : 
 ˝æ›∞¸ ˝¡ø        : 84  {42 ; 42}
≤ª∫¨∑‚◊∞–≈œ¢µƒ ˝æ›¡ø: 1,288 ◊÷Ω⁄  {152 ; 1,136}
∞¸∫¨∑‚◊∞–≈œ¢µƒ◊‹ ˝æ›¡ø: 4,696 ◊÷Ω⁄  {1,832 ; 2,864}
 ˝æ›ÀŸ¬           : 0.0 KB/√Î
≤∂ªÒ ±º‰          : 2011-1-14 15:25:33:828
◊ÓΩ¸≤∂ªÒ∞¸µƒ ±º‰  : 2011-1-14 15:37:34:484
±æª˙ MAC µÿ÷∑     : 
‘∂∂À MAC µÿ÷∑     : 
±æª˙ IP À˘ Ùπ˙    : 
‘∂∂À IP À˘ Ùπ˙    : 
==================================================

00000000  01 04 00 00 00 32 71 DF                            .....2qﬂ 

00000000  01 04 64 07 DB 00 01 00  0E 00 0F 00 08 00 15 00   ..d.€... ........ 
00000010  00 03 A4 02 98 02 7F 02  10 02 34 01 C1 01 8D 01   ..§.ò.. ..4.¡.ç. 
00000020  62 03 CE 00 B4 3B FE 44  02 00 0C 61 86 55 9C 42   b.Œ.¥;˛D ...aÜUúB 
00000030  66 00 15 3C 5B 00 00 00  00 00 00 0F 26 00 00 00   f..<[... ....&... 
00000040  00 59 01 43 25 00 03 6B  D6 A0 24 40 F1 00 0B D0   .Y.C%..k ÷†$@Ò..– 
00000050  3A 00 02 00 02 00 1B 00  00 00 00 00 00 00 00 00   :....... ........ 
00000060  00 03 20 00 00 00 00 E0  9F                        .. ....‡ ü

00000000  01 02 00 00 00 20 79 D2                            ..... y“ 

00000000  01 02 04 1B 00 00 00 FD  06                        .......˝ .

00000000  02 04 00 00 00 32 71 EC                            .....2qÏ 

00000000  02 04 64 07 DB 00 01 00  0E 00 0F 00 0B 00 1B 00   ..d.€... ........ 
00000010  00 00 04 00 00 02 86 02  3B 00 00 00 00 02 0B 01   ......Ü. ;....... 
00000020  3F 00 B8 00 01 00 00 00  00 00 00 00 00 00 00 00   ?.∏..... ........ 
00000030  00 00 00 00 00 00 00 00  00 00 00 13 DC 00 00 00   ........ ....‹... 
00000040  00 C6 77 43 C2 00 07 4A  71 2F F3 41 41 00 1D D9   .∆wC¬..J q/ÛAA..Ÿ 
00000050  AE 00 01 00 01 00 13 00  80 00 00 00 00 00 00 00   Æ....... Ä....... 
00000060  00 03 84 00 00 00 00 23  2B                        ..Ñ....# +

00000000  02 02 00 00 00 20 79 E1                            ..... y· 

00000000  02 02 04 13 00 80 00 AD  A6                        .....Ä.≠ ¶

00000000  03 04 00 00 00 32 70 3D                            .....2p= 

00000000  03 04 64 07 DB 00 01 00  0E 00 0F 00 01 00 37 FC   ..d.€... ......7¸ 
00000010  18 FC 18 FC 18 02 D4 02  5E 00 00 00 00 02 05 00   .¸.¸..‘. ^....... 
00000020  C0 03 5F 00 00 00 00 00  00 00 00 01 F6 00 00 00   ¿._..... ....ˆ... 
00000030  00 00 00 00 00 3B B3 41  03 00 00 2C 0C 00 00 00   .....;≥A ...,.... 
00000040  00 DE DB 43 B2 00 05 A2  6C FA CB 41 89 00 09 5A   .ﬁ€C≤..¢ l˙ÀAâ..Z 
00000050  4F 00 02 00 02 00 17 00  90 00 00 00 00 00 00 00   O....... ê....... 
00000060  00 02 BC 00 00 00 00 5B  4C                        ..º....[ L

00000000  03 02 00 00 00 20 78 30                            ..... x0 

00000000  03 02 04 17 00 90 00 B1  96 7B 01 00 16 31 35 31   .....ê.± ñ{...151 
00000010  37 36 36 35 38 36 31 37  0A 61 67 12 13 89 7B 7B   76658617 .ag..â{{ 
00000020  01 00 16 31 35 31 37 36  36 35 38 36 31 37 0A 61   ...15176 658617.a 
00000030  67 12 13 89 7B                                     g..â{

00000000  01 04 00 00 00 32 71 DF                            .....2qﬂ 

00000000  01 04 64 07 DB 00 01 00  0E 00 0F 00 0D 00 16 00   ..d.€... ........ 
00000010  00 03 A4 02 98 02 7F 02  0F 02 33 01 BD 01 8F 01   ..§.ò.. ..3.Ω.è. 
00000020  63 03 CD 00 B5 5E B6 44  01 00 0C 61 AB 16 D0 42   c.Õ.µ^∂D ...a´.–B 
00000030  64 00 15 3C 9C 00 00 00  00 00 00 0F 26 00 00 00   d..<ú... ....&... 
00000040  00 BB A6 43 24 00 03 6B  E4 C9 0F 40 F2 00 0B D0   .ª¶C$..k ‰….@Ú..– 
00000050  4A 00 02 00 02 00 1B 00  00 00 00 00 00 00 00 00   J....... ........ 
00000060  00 03 20 00 00 00 00 DC  E1                        .. ....‹ ·

00000000  01 02 00 00 00 20 79 D2                            ..... y“ 

00000000  01 02 04 1B 00 00 00 FD  06                        .......˝ .

00000000  02 04 00 00 00 32 71 EC                            .....2qÏ 

00000000  02 04 64 07 DB 00 01 00  0E 00 0F 00 10 00 1B 00   ..d.€... ........ 
00000010  00 00 03 00 00 02 87 02  3E 00 00 00 00 02 0A 01   ......á. >....... 
00000020  42 00 B8 00 01 00 00 00  00 00 00 00 00 00 00 00   B.∏..... ........ 
00000030  00 00 00 00 00 51 ED 3F  BD 00 00 13 DC 00 00 00   .....QÌ? Ω...‹... 
00000040  00 50 73 43 C2 00 07 4A  8C E3 66 41 3B 00 1D D9   .PsC¬..J å„fA;..Ÿ 
00000050  AE 00 01 00 01 00 13 00  80 00 00 00 00 00 00 00   Æ....... Ä....... 
00000060  00 03 84 00 00 00 00 93  CA                        ..Ñ....ì  

00000000  02 02 00 00 00 20 79 E1                            ..... y· 

00000000  02 02 04 13 00 80 00 AD  A6                        .....Ä.≠ ¶

00000000  03 04 00 00 00 32 70 3D                            .....2p= 

00000000  03 04 64 07 DB 00 01 00  0E 00 0F 00 06 00 37 FC   ..d.€... ......7¸ 
00000010  18 FC 18 FC 18 02 D3 02  5E 00 00 00 00 02 05 00   .¸.¸..”. ^....... 
00000020  C1 03 5F 00 00 00 00 00  00 00 00 01 F6 00 00 00   ¡._..... ....ˆ... 
00000030  00 00 00 00 00 B2 4E 41  01 00 00 2C 0C 00 00 00   .....≤NA ...,.... 
00000040  00 68 D7 43 B2 00 05 A2  88 98 03 41 88 00 09 5A   .h◊C≤..¢ àò.Aà..Z 
00000050  60 00 02 00 02 00 17 00  90 00 00 00 00 00 00 00   `....... ê....... 
00000060  00 02 BC 00 00 00 00 45  53                        ..º....E S

00000000  03 02 00 00 00 20 78 30                            ..... x0 

00000000  03 02 04 17 00 90 00 B1  96 7B 01 00 16 31 35 31   .....ê.± ñ{...151 
00000010  37 36 36 35 38 36 31 37  0A 61 67 12 13 89 7B 7B   76658617 .ag..â{{ 
00000020  01 00 16 31 35 31 37 36  36 35 38 36 31 37 0A 61   ...15176 658617.a 
00000030  67 12 13 89 7B                                     g..â{

00000000  01 04 00 00 00 32 71 DF                            .....2qﬂ 

00000000  01 04 64 07 DB 00 01 00  0E 00 0F 00 12 00 17 00   ..d.€... ........ 
00000010  00 03 A5 02 99 02 7E 02  10 02 30 01 BB 01 8F 01   ..•.ô.~. ..0.ª.è. 
00000020  65 03 CE 00 B5 F2 3B 44  01 00 0C 61 D0 F3 0D 42   e.Œ.µÚ;D ...a–Û.B 
00000030  64 00 15 3C DD 00 00 00  00 00 00 0F 26 00 00 00   d..<›... ....&... 
00000040  00 0A 54 43 25 00 03 6B  F2 30 76 40 EF 00 0B D0   ..TC%..k Ú0v@Ô..– 
00000050  5A 00 02 00 02 00 1B 00  00 00 00 00 00 00 00 00   Z....... ........ 
00000060  00 03 20 00 00 00 00 CC  E0                        .. ....Ã ‡

00000000  01 02 00 00 00 20 79 D2                            ..... y“ 

00000000  01 02 04 1B 00 00 00 FD  06                        .......˝ .

00000000  02 04 00 00 00 32 71 EC                            .....2qÏ 

00000000  02 04 64 07 DB 00 01 00  0E 00 0F 00 15 00 1B 00   ..d.€... ........ 
00000010  00 00 03 00 00 02 85 02  3E 00 00 00 00 02 0C 01   ......Ö. >....... 
00000020  43 00 B8 00 01 00 00 00  00 00 00 00 00 00 00 00   C.∏..... ........ 
00000030  00 00 00 00 00 25 46 40  CF 00 00 13 DD 00 00 00   .....%F@ œ...›... 
00000040  00 01 7A 43 C3 00 07 4A  A8 DD 9C 41 37 00 1D D9   ..zC√..J ®›úA7..Ÿ 
00000050  AE 00 01 00 01 00 13 00  80 00 00 00 00 00 00 00   Æ....... Ä....... 
00000060  00 03 84 00 00 00 00 06  F0                        ..Ñ..... 

00000000  02 02 00 00 00 20 79 E1                            ..... y· 

00000000  02 02 04 13 00 80 00 AD  A6                        .....Ä.≠ ¶

00000000  03 04 00 00 00 32 70 3D                            .....2p= 

00000000  03 04 64 07 DB 00 01 00  0E 00 0F 00 0B 00 37 FC   ..d.€... ......7¸ 
00000010  18 FC 18 FC 18 02 D4 02  5F 00 00 00 00 02 01 00   .¸.¸..‘. _....... 
00000020  BC 03 5F 00 00 00 00 00  00 00 00 01 F6 00 00 00   º._..... ....ˆ... 
00000030  00 00 00 00 00 97 42 41  1A 00 00 2C 0D 00 00 00   .....óBA ...,.... 
00000040  00 CA E4 43 B3 00 05 A2  A3 97 E8 41 89 00 09 5A   . ‰C≥..¢ £óËAâ..Z 
00000050  70 00 01 00 02 00 17 00  90 00 00 00 00 00 00 00   p....... ê....... 
00000060  00 02 BC 00 00 00 00 68  1B                        ..º....h .

00000000  03 02 00 00 00 20 78 30                            ..... x0 

00000000  03 02 04 17 00 90 00 B1  96 7B 01 00 16 31 35 31   .....ê.± ñ{...151 
00000010  37 36 36 35 38 36 31 37  0A 61 67 12 13 89 7B      76658617 .ag..â{


==================================================
±‡∫≈              : 1
–≠“È              : TCP
±æµÿµÿ÷∑          : 192.168.8.2
‘∂≥Ãµÿ÷∑          : 10.97.103.16
±æµÿ∂Àø⁄          : 9001
‘∂≥Ã∂Àø⁄          : 5001
±æµÿ÷˜ª˙          : 
‘∂≥Ã÷˜ª˙          : 
∑˛ŒÒ√˚≥∆          : 
 ˝æ›∞¸ ˝¡ø        : 54  {28 ; 26}
≤ª∫¨∑‚◊∞–≈œ¢µƒ ˝æ›¡ø: 757 ◊÷Ω⁄  {72 ; 685}
∞¸∫¨∑‚◊∞–≈œ¢µƒ◊‹ ˝æ›¡ø: 2,979 ◊÷Ω⁄  {1,192 ; 1,787}
 ˝æ›ÀŸ¬           : 0.0 KB/√Î
≤∂ªÒ ±º‰          : 2011-1-14 15:25:10:031
◊ÓΩ¸≤∂ªÒ∞¸µƒ ±º‰  : 2011-1-14 15:37:31:093
±æª˙ MAC µÿ÷∑     : 
‘∂∂À MAC µÿ÷∑     : 
±æª˙ IP À˘ Ùπ˙    : 
‘∂∂À IP À˘ Ùπ˙    : 
==================================================

00000000  7B 01 00 16 31 35 31 37  36 36 35 37 33 37 39 0A   {...1517 6657379. 
00000010  61 67 10 13 89 7B                                  ag..â{

00000000  01 04 00 00 00 32 71 DF                            .....2qﬂ 

00000000  01 04 64 08 12 00 05 00  09 00 15 00 30 00 01 00   ..d..... ....0... 
00000010  07 03 3B 02 91 02 46 01  F4 03 4B 01 41 01 D8 01   ..;.ë.F. Ù.K.A.ÿ. 
00000020  51 03 D9 00 B5 B2 03 43  02 00 01 95 BA F3 CF 41   Q.Ÿ.µ≤.C ...ï∫ÛœA 
00000030  11 00 01 8E 3E B4 78 3E  7F 00 00 03 DE 00 00 00   ...é>¥x> ...ﬁ... 
00000040  00 67 44 43 96 00 03 A1  5C 99 65 41 21 00 0D 93   .gDCñ..° \ôeA!..ì 
00000050  7F 00 00 00 00 00 13 00  40 00 00 00 00 00 00 00   ....... @....... 
00000060  00 03 84 03 E8 00 00 E0  78                        ..Ñ.Ë..‡ x

00000000  01 02 00 00 00 20 79 D2                            ..... y“ 

00000000  01 02 04 13 00 40 00 CE  A6 7B 01 00 16 31 35 31   .....@.Œ ¶{...151 
00000010  37 36 36 35 37 33 37 39  0A 61 67 10 13 89 7B 7B   76657379 .ag..â{{ 
00000020  01 00 16 31 35 31 37 36  36 35 37 33 37 39 0A 61   ...15176 657379.a 
00000030  67 10 13 89 7B                                     g..â{

00000000  01 04 00 00 00 32 71 DF                            .....2qﬂ 

00000000  01 04 64 07 D3 00 09 00  09 00 15 00 35 00 04 00   ..d.”... ....5... 
00000010  07 03 3A 02 90 02 47 01  F6 03 47 01 41 01 DF 01   ..:.ê.G. ˆ.G.A.ﬂ. 
00000020  52 03 D9 00 BA 4F F5 43  01 00 01 95 C6 72 32 41   R.Ÿ.∫OıC ...ï∆r2A 
00000030  10 00 01 8E 49 31 13 3F  A7 00 00 03 DE 00 00 00   ...éI1.? ß...ﬁ... 
00000040  00 70 CE 43 97 00 03 A1  74 C2 7E 41 20 00 0D 93   .pŒCó..° t¬~A ..ì 
00000050  90 00 00 00 00 00 13 00  40 00 00 00 00 00 00 00   ê....... @....... 
00000060  00 03 84 03 E8 00 00 65  20                        ..Ñ.Ë..e  

00000000  01 02 00 00 00 20 79 D2                            ..... y“ 

00000000  01 02 04 13 00 40 00 CE  A6 7B 01 00 16 31 35 31   .....@.Œ ¶{...151 
00000010  37 36 36 35 37 33 37 39  0A 61 67 10 13 89 7B 7B   76657379 .ag..â{{ 
00000020  01 00 16 31 35 31 37 36  36 35 37 33 37 39 0A 61   ...15176 657379.a 
00000030  67 10 13 89 7B                                     g..â{

00000000  01 04 00 00 00 32 71 DF                            .....2qﬂ 

00000000  01 04 64 07 F8 00 09 00  09 00 15 00 3A 00 03 00   ..d.¯... ....:... 
00000010  07 03 3C 02 93 02 48 01  F4 03 47 01 3F 01 DE 01   ..<.ì.H. Ù.G.?.ﬁ. 
00000020  50 03 D9 00 C0 4F F5 43  01 00 01 95 D2 94 34 41   P.Ÿ.¿OıC ...ï“î4A 
00000030  0F 00 01 8E 53 09 0C 3D  EC 00 00 03 DE 00 00 00   ...éS..= Ï...ﬁ... 
00000040  00 A3 29 43 93 00 03 A1  8B 42 91 41 22 00 0D 93   .£)Cì..° ãBëA"..ì 
00000050  A0 00 00 00 00 00 13 00  40 00 00 00 00 00 00 00   †....... @....... 
00000060  00 03 84 03 E8 00 00 7C  BE                        ..Ñ.Ë..| æ

00000000  01 02 00 00 00 20 79 D2                            ..... y“ 

00000000  01 02 04 13 00 40 00 CE  A6 7B 01 00 16 31 35 31   .....@.Œ ¶{...151 
00000010  37 36 36 35 37 33 37 39  0A 61 67 10 13 89 7B      76657379 .ag..â{


==================================================
±‡∫≈              : 2
–≠“È              : TCP
±æµÿµÿ÷∑          : 192.168.8.2
‘∂≥Ãµÿ÷∑          : 10.97.103.14
±æµÿ∂Àø⁄          : 9001
‘∂≥Ã∂Àø⁄          : 5001
±æµÿ÷˜ª˙          : 
‘∂≥Ã÷˜ª˙          : 
∑˛ŒÒ√˚≥∆          : 
 ˝æ›∞¸ ˝¡ø        : 74  {37 ; 37}
≤ª∫¨∑‚◊∞–≈œ¢µƒ ˝æ›¡ø: 1,962 ◊÷Ω⁄  {48 ; 1,914}
∞¸∫¨∑‚◊∞–≈œ¢µƒ◊‹ ˝æ›¡ø: 5,056 ◊÷Ω⁄  {1,528 ; 3,528}
 ˝æ›ÀŸ¬           : 0.0 KB/√Î
≤∂ªÒ ±º‰          : 2011-1-14 15:25:10:140
◊ÓΩ¸≤∂ªÒ∞¸µƒ ±º‰  : 2011-1-14 15:38:26:984
±æª˙ MAC µÿ÷∑     : 
‘∂∂À MAC µÿ÷∑     : 
±æª˙ IP À˘ Ùπ˙    : 
‘∂∂À IP À˘ Ùπ˙    : 
==================================================

00000000  00 00 00 00 00 00 00 00  00 00 00 00 00 00 00 00   ........ ........ 
00000010  00 00 00 00 00 00 00 00  00 00 00 00 00 00 00 00   ........ ........ 
00000020  00 00 00 00 00 00 00 00  00 00 00 00 00 00 00 00   ........ ........ 
00000030  00 00 00 00 00 00 00 00  00 00 00 00 00 00 00 00   ........ ........ 
00000040  00 00 00 00 00 00 00 00  00 00 00 00 00 00 00 00   ........ ........ 
00000050  00 00 00 00 00 00 00 00  00 00 00 00 00 00 00 00   ........ ........ 
00000060  00 00 00 00 00 00 00 00  00 00 00 00 00 00 00 00   ........ ........ 
00000070  00 00 00 00 00 00 00 00  00 00 00 00 00 00 00 00   ........ ........ 
00000080  00 00 00 00 00 00 00 00  00 00 00 00 00 00 00 00   ........ ........ 
00000090  00 00 00 00 00 00 00 00  00 00 00 00 00 00 00 00   ........ ........ 
000000A0  00 00 00 00 00 00 00 00  00 00 00 00 00 00 00 00   ........ ........ 
000000B0  00 00 00 00 00 00 00 00  00 00 00 00 00 00 00 00   ........ ........ 
000000C0  00 00 00 00 00 00 00 00  00 00 00 00 00 00 00 00   ........ ........ 
000000D0  00 00 00 00 00 00 00 00  00 00 00 00 00 00 00 00   ........ ........ 
000000E0  00 00 00 00 00 00 00 00  00 00 00 00 00 00 00 00   ........ ........ 
000000F0  00 00 00 00 00 00 00 00  00 00 00 00 00 00 00 00   ........ ........ 
00000100  00 00 00 00 00 00 00                               .......

00000000  01 04 00 00 00 32 71 DF  01 02 00 00 00 20 79 D2   .....2qﬂ ..... y“ 

00000000  00 00 00 00 00 00 00 00  00 00 00 00 00 00 00 00   ........ ........ 
00000010  00 00 00 00 00 00 00 00  01 04 64 07 DB 00 01 00   ........ ..d.€... 
00000020  0E 00 0F 00 13 00 24 FF  F1 03 A0 02 51 02 98 02   ......$ˇ Ò.†.Q.ò. 
00000030  35 02 0C 02 02 01 CC 01  83 03 D6 00 BD 05 82 42   5.....Ã. É.÷.Ω.ÇB 
00000040  F8 00 01 EF E5 E8 47 41  88 00 05 4D E6 00 00 00   ¯..ÔÂËGA à..MÊ... 
00000050  00 00 00 03 1C 00 00 00  00 4E 30 43 87 00 04 35   ........ .N0Cá..5 
00000060  7B 5F 16 41 2F 00 2C 18  EA 00 01 00 01 00 16 00   {_.A/.,. Í....... 
00000070  46 00 00 00 00 00 00 00  00 03 84 00 00 00 14 96   F....... ..Ñ....ñ 
00000080  06 00 00 00 00 00 00 00  00 00 00 00 00 00 00 00   ........ ........ 
00000090  00 00 00 00 00 00 00 00  00 00 00 00 00 00 00 00   ........ ........ 
000000A0  00 00 00 00 00 00 00 00  00 00 00 00 00 00 00 00   ........ ........ 
000000B0  00 00 00 00 00 00 00 00  00 00 00 00 00 01 02 04   ........ ........ 
000000C0  16 00 46 00 CD CA 00 00  00 00 00 00 00 00 00 00   ..F.Õ .. ........ 
000000D0  00 00 00 00 00 00 00 00  00 00 00 00 00 00 00 00   ........ ........ 
000000E0  00 00 00 00 00 00 00 00  00 00 00 00 00 00 00 00   ........ ........ 
000000F0  00 00 00 00 00 00 00 00  00 00 00 00 00 00 00 00   ........ ........ 
00000100  7B 01 00 16 31 33 39 31  32 33 34 35 36 37 38 0A   {...1391 2345678. 
00000110  61 67 0E 13 89 7B 7B 01  00 16 31 33 39 31 32 33   ag..â{{. ..139123 
00000120  34 35 36 37 38 0A 61 67  0E 13 89 7B 7B 01 00 16   45678.ag ..â{{... 
00000130  31 33 39 31 32 33 34 35  36 37 38 0A 61 67 0E 13   13912345 678.ag.. 
00000140  89 7B 7B 01 00 16 31 33  39 31 32 33 34 35 36 37   â{{...13 91234567 
00000150  38 0A 61 67 0E 13 89 7B  7B 01 00 16 31 33 39 31   8.ag..â{ {...1391 
00000160  32 33 34 35 36 37 38 0A  61 67 0E 13 89 7B 7B 01   2345678. ag..â{{. 
00000170  00 16 31 33 39 31 32 33  34 35 36 37 38 0A 61 67   ..139123 45678.ag 
00000180  0E 13 89 7B                                        ..â{

00000000  01 04 00 00 00 32 71 DF                            .....2qﬂ 

00000000  00 01 04 64 07 DB 00 01  00 0E 00 0F 00 18 00 26   ...d.€.. .......& 
00000010  FF F7 03 9F 02 54 02 A4  02 37 02 0E 02 05 01 CE   ˇ˜.ü.T.§ .7.....Œ 
00000020  01 82 03 D6 00 BD 00 FC  43 02 00 01 EF EF ED A8   .Ç.÷.Ω.¸ C...ÔÔÌ® 
00000030  41 8D 00 05 4D F6 F4 00  41 2D 00 00 03 1C 00 00   Aç..MˆÙ. A-...... 
00000040  00 00 EF C6 43 7E 00 04  35 8E F0 9D 41 35 00 2C   ..Ô∆C~.. 5éùA5., 
00000050  18 EA 00 01 00 01 00 0E  00 46 00 00 00 00 00 00   .Í...... .F...... 
00000060  00 00 03 84 00 00 00 14  8A 82 00                  ...Ñ.... äÇ.

00000000  01 02 00 00 00 20 79 D2                            ..... y“ 

00000000  00 00 00 00 00 00 00 00  00 00 00 00 00 00 00 00   ........ ........ 
00000010  00 00 00 00 00 00 00 00  00 00 00 00 00 00 00 00   ........ ........ 
00000020  00 00 00 00 00 00 00 00  00 00 00 00 00 00 00 00   ........ ........ 
00000030  00 00 00 00 00 00 01 02  04 16 00 46 00 CD CA 00   ........ ...F.Õ . 
00000040  00 00 00 00 00 00 00 00  00 00 00 00 00 00 00 00   ........ ........ 
00000050  00 00 00 00 00 00 00 00  00 00 00 00 00 00 00 00   ........ ........ 
00000060  00 00 00 00 00 00 00 00  00 00 00 00 00 00 00 00   ........ ........ 
00000070  00 00 00 00 00 00 00 00  00 00 00 00 00 00 00 00   ........ ........ 
00000080  00 00 00 00 00 00 00 00  00 00 00 00 00 00 00 00   ........ ........ 
00000090  00 00 00 00 00 00 00 00  00 00 00 00 00 00 00 00   ........ ........ 
000000A0  00 00 00 00 00 00 00 00  00 00 00 00 00 00 00 00   ........ ........ 
000000B0  00 00 00 00 00 00 00 00  00 00 00 00 00 00 00 00   ........ ........ 
000000C0  00 00 00 00 00 00 00 00  00 00 00 00 00 00 00 00   ........ ........ 
000000D0  00 00 00 00 00 00 00 00  00 00 00 00 00 00 00 00   ........ ........ 
000000E0  00 00 00 00 00 00 00 00  00 00 00 00 00 00 00 00   ........ ........ 
000000F0  00 00 00 00 00 00 00 00  00 00 00 00 00 00 00 00   ........ ........ 
00000100  00 00 00 00 00 00 00 00  00 00 00 00 00 00 00 00   ........ ........ 
00000110  00 00 00 00 00 00 00 00  00 00 00 00 00 00 00 00   ........ ........ 
00000120  00 00 00 00 00 00 00 00  00 00 00 00 00 00 00 00   ........ ........ 
00000130  00 00 00 00 00 00 00 00  00 00 00 00 00 00 00 00   ........ ........ 
00000140  00 00 00 00 00 00 00 00  00 00 00 00 00 00 00 00   ........ ........ 
00000150  00 00 00 00 00 00 00 00  00 00 00 00 00 00 00 00   ........ ........ 
00000160  00 00 00 00 00 00 00 00  00 00 00 00 00 00 00 00   ........ ........ 
00000170  00 00 00 00 00 00 00 00  00 00 00 00 00 00 00 00   ........ ........ 
00000180  00 00 00 00 00 00 00 00  00 00 00 00 00 00 00 00   ........ ........ 
00000190  00 00 00 00 7B 01 00 16  31 33 39 31 32 33 34 35   ....{... 13912345 
000001A0  36 37 38 0A 61 67 0E 13  89 7B 7B 01 00 16 31 33   678.ag.. â{{...13 
000001B0  39 31 32 33 34 35 36 37  38 0A 61 67 0E 13 89 7B   91234567 8.ag..â{ 
000001C0  7B 01 00 16 31 33 39 31  32 33 34 35 36 37 38 0A   {...1391 2345678. 
000001D0  61 67 0E 13 89 7B 7B 01  00 16 31 33 39 31 32 33   ag..â{{. ..139123 
000001E0  34 35 36 37 38 0A 61 67  0E 13 89 7B 7B 01 00 16   45678.ag ..â{{... 
000001F0  31 33 39 31 32 33 34 35  36 37 38 0A 61 67 0E 13   13912345 678.ag.. 
00000200  89 7B                                              â{

00000000  01 04 00 00 00 32 71 DF                            .....2qﬂ 

00000000  01 04 64 07 DB 00 01 00  0E 00 0F 00 1D 00 26 FF   ..d.€... ......&ˇ 
00000010  F6 03 9D 02 57 02 A1 02  34 02 0A 02 01 01 6C 01   ˆ.ù.W.°. 4.....l. 
00000020  2E 03 D6 00 BE 28 EA 43  00 00 01 EF F8 F9 E8 41   ..÷.æ(ÍC ...Ô¯˘ËA 
00000030  89 00 05 4E 07 00 00 00  00 00 00 03 1C 00 00 00   â..N.... ........ 
00000040  00 43 2C 43 6F 00 04 35  A0 E4 16 41 2A 00 2C 18   .C,Co..5 †‰.A*.,. 
00000050  EA 00 01 00 01 00 0E 00  40 00 00 00 00 00 00 00   Í....... @....... 
00000060  00 03 84 00 00 00 14 0D  8F 00                     ..Ñ..... è.

00000000  01 02 00 00 00 20 79 D2                            ..... y“ 

00000000  01 02 04 0E 00 40 00 C8  CA 00 00 00 00 00 00 00   .....@.»  ....... 
00000010  00 00 00 00 00 00 00 00  00 00 00 00 00 00 00 00   ........ ........ 
00000020  00 00 00 00 00 00 00 00  00 00 00 00 00 00 00 00   ........ ........ 
00000030  00 00 00 00 00 00 00 00  00 00 00 00 00 00 00 00   ........ ........ 
00000040  00 00 00 00 00 00 00 00  00 00 00 00 00 00 00 00   ........ ........ 
00000050  00 00 00 00 00 00 00 00  00 00 00 00 00 00 00 00   ........ ........ 
00000060  00 00 00 00 00 00 00 00  00 00 00 00 00 00 00 00   ........ ........ 
00000070  00 00 00 00 00 00 00 00  00 00 00 00 00 00 00 00   ........ ........ 
00000080  00 00 00 00 00 00 00 00  00 00 00 00 00 00 00 00   ........ ........ 
00000090  00 00 00 00 00 00 00 00  00 00 00 00 00 00 00 00   ........ ........ 
000000A0  00 00 00 00 00 00 00 00  00 00 00 00 00 00 00 00   ........ ........ 
000000B0  00 00 00 00 00 00 00 00  00 00 00 00 00 00 00 00   ........ ........ 
000000C0  00 00 00 00 00 00 00 00  00 00 00 00 00 00 00 00   ........ ........ 
000000D0  00 00 00 00 00 00 00 00  00 00 00 00 00 00 00 00   ........ ........ 
000000E0  00 00 00 00 00 00 00 00  00 00 00 00 00 00 00 00   ........ ........ 
000000F0  00 00 00 00 00 00 00 00  00 00 00 00 00 00 00 00   ........ ........ 
00000100  00 00 00 00 00 00 00 00  00 00 00 00 00 00 00 00   ........ ........ 
00000110  00 00 00 00 00 00 00 00  00 00 00 00 00 00 00 00   ........ ........ 
00000120  00 00 00 00 00 00 00 00  00 00 00 00 00 00 00 00   ........ ........ 
00000130  00 00 00 00 00 00 00 00  00 00 00 00 00 00 00 00   ........ ........ 
00000140  00 00 00 00 00 00 00 00  00 00 00 00 00 00 00 00   ........ ........ 
00000150  00 00 00 00 00 00 00 00  00 00 00 00 00 00 00 00   ........ ........ 
00000160  00 00 00 00 00 00 00 00  00 00 00 00 00 00 00 00   ........ ........ 
00000170  00 00 00 00 00 00 00 00  00 00 00 00 00 00 00 00   ........ ........ 
00000180  00 00 00 00 00 00 00 00  00 00 00 00 00 00 00 00   ........ ........ 
00000190  00 00 00 00 7B 01 00 16  31 33 39 31 32 33 34 35   ....{... 13912345 
000001A0  36 37 38 0A 61 67 0E 13  89 7B 7B 01 00 16 31 33   678.ag.. â{{...13 
000001B0  39 31 32 33 34 35 36 37  38 0A 61 67 0E 13 89 7B   91234567 8.ag..â{ 


==================================================
±‡∫≈              : 3
–≠“È              : TCP
±æµÿµÿ÷∑          : 192.168.8.2
‘∂≥Ãµÿ÷∑          : 10.97.103.13
±æµÿ∂Àø⁄          : 9001
‘∂≥Ã∂Àø⁄          : 5001
±æµÿ÷˜ª˙          : 
‘∂≥Ã÷˜ª˙          : 
∑˛ŒÒ√˚≥∆          : 
 ˝æ›∞¸ ˝¡ø        : 34  {17 ; 17}
≤ª∫¨∑‚◊∞–≈œ¢µƒ ˝æ›¡ø: 500 ◊÷Ω⁄  {48 ; 452}
∞¸∫¨∑‚◊∞–≈œ¢µƒ◊‹ ˝æ›¡ø: 1,908 ◊÷Ω⁄  {728 ; 1,180}
 ˝æ›ÀŸ¬           : 0.0 KB/√Î
≤∂ªÒ ±º‰          : 2011-1-14 15:25:27:765
◊ÓΩ¸≤∂ªÒ∞¸µƒ ±º‰  : 2011-1-14 15:37:15:343
±æª˙ MAC µÿ÷∑     : 
‘∂∂À MAC µÿ÷∑     : 
±æª˙ IP À˘ Ùπ˙    : 
‘∂∂À IP À˘ Ùπ˙    : 
==================================================

00000000  01 04 00 00 00 32 71 DF                            .....2qﬂ 

00000000  01 04 64 07 D0 00 03 00  1D 00 06 00 2F 00 21 FF   ..d.–... ..../.!ˇ 
00000010  F3 03 9C 02 4D 02 8F 02  38 02 87 02 5F 01 A4 01   Û.ú.M.è. 8.á._.§. 
00000020  3B 03 9D 00 80 9D 29 42  86 00 01 1A FC C2 EF 41   ;.ù.Äù)B Ü...¸¬ÔA 
00000030  14 00 03 D7 D5 00 00 00  00 00 00 01 55 00 00 00   ...◊’... ....U... 
00000040  00 FE 54 43 8A 00 04 67  C9 EE 9C 41 1F 00 05 F3   .˛TCä..g …ÓúA...Û 
00000050  2F 00 03 00 03 00 06 00  00 00 00 00 00 00 00 00   /....... ........ 
00000060  00 03 84 00 0C 00 00 70  91                        ..Ñ....p ë

00000000  01 02 00 00 00 20 79 D2                            ..... y“ 

00000000  01 02 04 06 00 00 00 FB  6A 7B 01 00 16 31 35 31   .......˚ j{...151 
00000010  37 36 36 35 37 35 33 39  0A 61 67 0D 13 89 7B 7B   76657539 .ag..â{{ 
00000020  01 00 16 31 35 31 37 36  36 35 37 35 33 39 0A 61   ...15176 657539.a 
00000030  67 0D 13 89 7B                                     g..â{

00000000  01 04 00 00 00 32 71 DF                            .....2qﬂ 

00000000  01 04 64 07 D0 00 03 00  1D 00 06 00 34 00 22 FF   ..d.–... ....4."ˇ 
00000010  ED 03 A2 02 4F 02 8F 02  3A 02 86 02 5E 01 A2 01   Ì.¢.O.è. :.Ü.^.¢. 
00000020  3A 03 9E 00 80 B1 20 42  85 00 01 1B 01 94 C5 41   :.û.Ä± B Ö....î≈A 
00000030  15 00 03 D7 DD 00 00 00  00 00 00 01 55 00 00 00   ...◊›... ....U... 
00000040  00 EA 5D 43 8B 00 04 67  DB 88 FF 41 1D 00 05 F3   .Í]Cã..g €àˇA...Û 
00000050  37 00 03 00 03 00 06 00  00 00 00 00 00 00 00 00   7....... ........ 
00000060  00 03 84 00 0C 00 00 BD  F6                        ..Ñ....Ω ˆ

00000000  01 02 00 00 00 20 79 D2                            ..... y“ 

00000000  01 02 04 06 00 00 00 FB  6A 7B 01 00 16 31 35 31   .......˚ j{...151 
00000010  37 36 36 35 37 35 33 39  0A 61 67 0D 13 89 7B 7B   76657539 .ag..â{{ 
00000020  01 00 16 31 35 31 37 36  36 35 37 35 33 39 0A 61   ...15176 657539.a 
00000030  67 0D 13 89 7B                                     g..â{

00000000  01 04 00 00 00 32 71 DF                            .....2qﬂ 

00000000  01 04 64 07 D0 00 03 00  1D 00 06 00 39 00 22 FF   ..d.–... ....9."ˇ 
00000010  E9 03 A2 02 50 02 91 02  3A 02 84 02 5B 01 9E 01   È.¢.P.ë. :.Ñ.[.û. 
00000020  36 03 9E 00 81 B1 20 42  85 00 01 1B 05 29 60 41   6.û.Å± B Ö....)`A 
00000030  15 00 03 D7 E5 00 00 00  00 00 00 01 55 00 00 00   ...◊Â... ....U... 
00000040  00 88 4F 43 8A 00 04 67  EE 52 08 41 1F 00 05 F3   .àOCä..g ÓR.A...Û 
00000050  3F 00 03 00 03 00 06 00  00 00 00 00 00 00 00 00   ?....... ........ 
00000060  00 03 84 00 0C 00 00 F4  B7                        ..Ñ....Ù ∑

00000000  01 02 00 00 00 20 79 D2                            ..... y“ 

00000000  01 02 04 06 00 00 00 FB  6A 7B 01 00 16 31 35 31   .......˚ j{...151 
00000010  37 36 36 35 37 35 33 39  0A 61 67 0D 13 89 7B      76657539 .ag..â{


==================================================
±‡∫≈              : 8
–≠“È              : TCP
±æµÿµÿ÷∑          : 192.168.8.2
‘∂≥Ãµÿ÷∑          : 10.97.103.12
±æµÿ∂Àø⁄          : 9001
‘∂≥Ã∂Àø⁄          : 5001
±æµÿ÷˜ª˙          : 
‘∂≥Ã÷˜ª˙          : 
∑˛ŒÒ√˚≥∆          : 
 ˝æ›∞¸ ˝¡ø        : 34  {17 ; 17}
≤ª∫¨∑‚◊∞–≈œ¢µƒ ˝æ›¡ø: 500 ◊÷Ω⁄  {48 ; 452}
∞¸∫¨∑‚◊∞–≈œ¢µƒ◊‹ ˝æ›¡ø: 1,908 ◊÷Ω⁄  {728 ; 1,180}
 ˝æ›ÀŸ¬           : 0.0 KB/√Î
≤∂ªÒ ±º‰          : 2011-1-14 15:25:35:765
◊ÓΩ¸≤∂ªÒ∞¸µƒ ±º‰  : 2011-1-14 15:37:24:531
±æª˙ MAC µÿ÷∑     : 
‘∂∂À MAC µÿ÷∑     : 
±æª˙ IP À˘ Ùπ˙    : 
‘∂∂À IP À˘ Ùπ˙    : 
==================================================

00000000  01 04 00 00 00 32 71 DF                            .....2qﬂ 

00000000  01 04 64 07 DB 00 01 00  0E 00 0E 00 37 00 24 00   ..d.€... ....7.$. 
00000010  00 03 BF 02 74 02 BA 02  26 02 98 02 54 01 51 00   ..ø.t.∫. &.ò.T.Q. 
00000020  E6 03 DB 00 A0 8F 00 42  B6 00 01 C3 2E 28 55 41   Ê.€.†è.B ∂..√.(UA 
00000030  47 00 02 5E 22 80 EF 40  23 00 00 0E 0C 00 00 00   G..^"ÄÔ@ #....... 
00000040  00 38 74 43 8E 00 03 8A  E6 17 F0 41 8A 00 04 F2   .8tCé..ä Ê.Aä..Ú 
00000050  F4 00 02 00 02 00 0F 00  00 00 00 00 00 00 00 00   Ù....... ........ 
00000060  00 03 84 00 00 00 00 38  55                        ..Ñ....8 U

00000000  01 02 00 00 00 20 79 D2                            ..... y“ 

00000000  01 02 04 0F 00 00 00 F8  F6 7B 01 00 16 31 35 31   .......¯ ˆ{...151 
00000010  37 36 36 35 37 36 32 33  0A 61 67 0C 13 89 7B 7B   76657623 .ag..â{{ 
00000020  01 00 16 31 35 31 37 36  36 35 37 36 32 33 0A 61   ...15176 657623.a 
00000030  67 0C 13 89 7B                                     g..â{

00000000  01 04 00 00 00 32 71 DF                            .....2qﬂ 

00000000  01 04 64 07 DB 00 01 00  0E 00 0F 00 00 00 24 00   ..d.€... ......$. 
00000010  00 03 BF 02 74 02 BA 02  27 02 95 02 50 01 51 00   ..ø.t.∫. '.ï.P.Q. 
00000020  E5 03 DB 00 A0 A2 F6 42  B5 00 01 C3 35 26 D4 41   Â.€.†¢ˆB µ..√5&‘A 
00000030  46 00 02 5E 2D C0 5E 40  14 00 00 0E 0C 00 00 00   F..^-¿^@ ........ 
00000040  00 60 62 43 8C 00 03 8A  FD 71 50 41 87 00 04 F2   .`bCå..ä ˝qPAá..Ú 
00000050  FF 00 02 00 02 00 0F 00  00 00 00 00 00 00 00 00   ˇ....... ........ 
00000060  00 03 84 00 00 00 00 47  4A                        ..Ñ....G J

00000000  01 02 00 00 00 20 79 D2                            ..... y“ 

00000000  01 02 04 0F 00 00 00 F8  F6 7B 01 00 16 31 35 31   .......¯ ˆ{...151 
00000010  37 36 36 35 37 36 32 33  0A 61 67 0C 13 89 7B 7B   76657623 .ag..â{{ 
00000020  01 00 16 31 35 31 37 36  36 35 37 36 32 33 0A 61   ...15176 657623.a 
00000030  67 0C 13 89 7B                                     g..â{

00000000  01 04 00 00 00 32 71 DF                            .....2qﬂ 

00000000  01 04 64 07 DB 00 01 00  0E 00 0F 00 05 00 24 00   ..d.€... ......$. 
00000010  00 03 BF 02 74 02 BA 02  27 02 91 02 4E 01 51 00   ..ø.t.∫. '.ë.N.Q. 
00000020  E8 03 DB 00 9F A2 F6 42  B5 00 01 C3 3C 26 D4 41   Ë.€.ü¢ˆB µ..√<&‘A 
00000030  46 00 02 5E 39 85 A8 40  13 00 00 0E 0C 00 00 00   F..^9Ö®@ ........ 
00000040  00 14 F3 43 81 00 03 8B  13 17 02 41 79 00 04 F3   ..ÛCÅ..ã ...Ay..Û 
00000050  0B 00 02 00 02 00 0F 00  00 00 00 00 00 00 00 00   ........ ........ 
00000060  00 03 84 00 00 00 00 FA  82                        ..Ñ....˙ Ç

00000000  01 02 00 00 00 20 79 D2                            ..... y“ 

00000000  01 02 04 0F 00 00 00 F8  F6 7B 01 00 16 31 35 31   .......¯ ˆ{...151 
00000010  37 36 36 35 37 36 32 33  0A 61 67 0C 13 89 7B      76657623 .ag..â{


==================================================
±‡∫≈              : 10
–≠“È              : TCP
±æµÿµÿ÷∑          : 192.168.8.2
‘∂≥Ãµÿ÷∑          : 10.97.103.11
±æµÿ∂Àø⁄          : 9001
‘∂≥Ã∂Àø⁄          : 5001
±æµÿ÷˜ª˙          : 
‘∂≥Ã÷˜ª˙          : 
∑˛ŒÒ√˚≥∆          : 
 ˝æ›∞¸ ˝¡ø        : 34  {17 ; 17}
≤ª∫¨∑‚◊∞–≈œ¢µƒ ˝æ›¡ø: 500 ◊÷Ω⁄  {48 ; 452}
∞¸∫¨∑‚◊∞–≈œ¢µƒ◊‹ ˝æ›¡ø: 1,908 ◊÷Ω⁄  {728 ; 1,180}
 ˝æ›ÀŸ¬           : 0.0 KB/√Î
≤∂ªÒ ±º‰          : 2011-1-14 15:25:35:765
◊ÓΩ¸≤∂ªÒ∞¸µƒ ±º‰  : 2011-1-14 15:37:23:218
±æª˙ MAC µÿ÷∑     : 
‘∂∂À MAC µÿ÷∑     : 
±æª˙ IP À˘ Ùπ˙    : 
‘∂∂À IP À˘ Ùπ˙    : 
==================================================

00000000  01 04 00 00 00 32 71 DF                            .....2qﬂ 

00000000  01 04 64 07 DB 00 01 00  0E 00 0E 00 36 00 1A 00   ..d.€... ....6... 
00000010  00 03 A7 02 59 02 75 01  FA 01 F9 01 C9 01 6D 00   ..ß.Y.u. ˙.˘.….m. 
00000020  DC 03 9B 00 AF 6A 9C 42  AC 00 01 D6 A7 72 E6 41   ‹.õ.ØjúB ¨..÷ßrÊA 
00000030  3E 00 02 05 15 00 00 00  00 00 00 10 4B 00 00 00   >....... ....K... 
00000040  00 BE 80 43 5D 00 04 AF  2D 0C 97 41 33 00 02 F6   .æÄC]..Ø -.óA3..ˆ 
00000050  FB 00 02 00 00 00 17 00  00 00 00 00 00 00 00 00   ˚....... ........ 
00000060  00 03 84 00 00 00 00 E8  DF                        ..Ñ....Ë ﬂ

00000000  01 02 00 00 00 20 79 D2                            ..... y“ 

00000000  01 02 04 17 00 00 00 FE  56 7B 01 00 16 31 35 31   .......˛ V{...151 
00000010  37 36 36 35 37 36 37 31  0A 61 67 0B 13 89 7B 7B   76657671 .ag..â{{ 
00000020  01 00 16 31 35 31 37 36  36 35 37 36 37 31 0A 61   ...15176 657671.a 
00000030  67 0B 13 89 7B                                     g..â{

00000000  01 04 00 00 00 32 71 DF                            .....2qﬂ 

00000000  01 04 64 07 DB 00 01 00  0E 00 0E 00 3B 00 1A 00   ..d.€... ....;... 
00000010  00 03 A3 02 57 02 72 01  F9 01 FC 01 C9 01 70 00   ..£.W.r. ˘.¸.….p. 
00000020  DF 03 9B 00 AF 7E 93 42  AB 00 01 D6 AE 0F B0 41   ﬂ.õ.Ø~ìB ´..÷Æ.∞A 
00000030  3C 00 02 05 20 00 00 00  00 00 00 10 4B 00 00 00   <... ... ....K... 
00000040  00 AA 89 43 5E 00 04 AF  3F D6 B3 41 2F 00 02 F7   .™âC^..Ø ?÷≥A/..˜ 
00000050  06 00 02 00 01 00 17 00  00 00 00 00 00 00 00 00   ........ ........ 
00000060  00 03 84 00 00 00 00 E5  F4                        ..Ñ....Â Ù

00000000  01 02 00 00 00 20 79 D2                            ..... y“ 

00000000  01 02 04 17 00 00 00 FE  56 7B 01 00 16 31 35 31   .......˛ V{...151 
00000010  37 36 36 35 37 36 37 31  0A 61 67 0B 13 89 7B 7B   76657671 .ag..â{{ 
00000020  01 00 16 31 35 31 37 36  36 35 37 36 37 31 0A 61   ...15176 657671.a 
00000030  67 0B 13 89 7B                                     g..â{

00000000  01 04 00 00 00 32 71 DF                            .....2qﬂ 

00000000  01 04 64 07 DB 00 01 00  0E 00 0F 00 04 00 1B 00   ..d.€... ........ 
00000010  00 03 A4 02 58 02 75 01  F8 01 FA 01 C8 01 6E 00   ..§.X.u. ¯.˙.».n. 
00000020  DC 03 9B 00 AF 6A 9C 42  AC 00 01 D6 B5 05 E5 41   ‹.õ.ØjúB ¨..÷µ.ÂA 
00000030  3D 00 02 05 2B 5B 5E 3D  1D 00 00 10 4B 00 00 00   =...+[^= ....K... 
00000040  00 AA 89 43 5E 00 04 AF  52 8F 48 41 36 00 02 F7   .™âC^..Ø RèHA6..˜ 
00000050  12 00 02 00 00 00 17 00  00 00 00 00 00 00 00 00   ........ ........ 
00000060  00 03 84 00 00 00 00 3A  4B                        ..Ñ....: K

00000000  01 02 00 00 00 20 79 D2                            ..... y“ 

00000000  01 02 04 17 00 00 00 FE  56 7B 01 00 16 31 35 31   .......˛ V{...151 
00000010  37 36 36 35 37 36 37 31  0A 61 67 0B 13 89 7B      76657671 .ag..â{


==================================================
±‡∫≈              : 12
–≠“È              : TCP
±æµÿµÿ÷∑          : 192.168.8.2
‘∂≥Ãµÿ÷∑          : 10.97.103.10
±æµÿ∂Àø⁄          : 9001
‘∂≥Ã∂Àø⁄          : 5001
±æµÿ÷˜ª˙          : 
‘∂≥Ã÷˜ª˙          : 
∑˛ŒÒ√˚≥∆          : 
 ˝æ›∞¸ ˝¡ø        : 37  {19 ; 18}
≤ª∫¨∑‚◊∞–≈œ¢µƒ ˝æ›¡ø: 613 ◊÷Ω⁄  {56 ; 557}
∞¸∫¨∑‚◊∞–≈œ¢µƒ◊‹ ˝æ›¡ø: 2,141 ◊÷Ω⁄  {816 ; 1,325}
 ˝æ›ÀŸ¬           : 0.0 KB/√Î
≤∂ªÒ ±º‰          : 2011-1-14 15:25:36:765
◊ÓΩ¸≤∂ªÒ∞¸µƒ ±º‰  : 2011-1-14 15:37:32:953
±æª˙ MAC µÿ÷∑     : 
‘∂∂À MAC µÿ÷∑     : 
±æª˙ IP À˘ Ùπ˙    : 
‘∂∂À IP À˘ Ùπ˙    : 
==================================================

00000000  01 04 00 00 00 32 71 DF                            .....2qﬂ 

00000000  01 04 64 07 DB 00 01 00  0E 00 09 00 1F 00 03 00   ..d.€... ........ 
00000010  00 03 C4 02 B0 02 DE 02  2D 02 79 02 04 01 3B 00   ..ƒ.∞.ﬁ. -.y...;. 
00000020  E3 03 94 00 AA 9E EE 43  00 00 02 81 FB B7 CE 41   „.î.™ûÓC ...Å˚∑ŒA 
00000030  68 00 03 6D CF AF F2 40  09 00 00 08 B6 00 00 00   h..mœØÚ@ ....∂... 
00000040  00 7D 4C 43 72 00 05 08  DE D8 4D 41 8B 00 0E F6   .}LCr... ﬁÿMAã..ˆ 
00000050  8B 00 00 00 00 00 0B 00  00 00 00 00 00 00 00 00   ã....... ........ 
00000060  00 03 84 00 00 00 00 50  12                        ..Ñ....P .

00000000  01 02 00 00 00 20 79 D2                            ..... y“ 

00000000  01 02 04 0B 00 00 00 F9  C6 7B 01 00 16 31 35 31   .......˘ ∆{...151 
00000010  37 36 36 35 36 38 30 35  0A 61 67 0A 13 89 7B 7B   76656805 .ag..â{{ 
00000020  01 00 16 31 35 31 37 36  36 35 36 38 30 35 0A 61   ...15176 656805.a 
00000030  67 0A 13 89 7B                                     g..â{

00000000  01 04 00 00 00 32 71 DF                            .....2qﬂ 

00000000  01 04 64 07 DB 00 01 00  0E 00 09 00 24 00 08 00   ..d.€... ....$... 
00000010  00 03 C3 02 AF 02 E0 02  2E 02 7A 02 04 01 39 00   ..√.Ø.‡. ..z...9. 
00000020  DF 03 A0 00 AA 14 F3 43  01 00 02 82 05 9C DA 41   ﬂ.†.™.ÛC ...Ç.ú⁄A 
00000030  69 00 03 6D DE B4 78 3F  FF 00 00 08 B6 00 00 00   i..mﬁ¥x? ˇ...∂... 
00000040  00 55 5E 43 74 00 05 08  F1 96 16 41 8D 00 0E F6   .U^Ct... Òñ.Aç..ˆ 
00000050  AA 00 00 00 00 00 0B 00  00 00 00 00 00 00 00 00   ™....... ........ 
00000060  00 03 84 00 00 00 00 D5  C6                        ..Ñ....’ ∆

00000000  01 02 00 00 00 20 79 D2                            ..... y“ 

00000000  01 02 04 0B 00 00 00 F9  C6 7B 01 00 16 31 35 31   .......˘ ∆{...151 
00000010  37 36 36 35 36 38 30 35  0A 61 67 0A 13 89 7B 7B   76656805 .ag..â{{ 
00000020  01 00 16 31 35 31 37 36  36 35 36 38 30 35 0A 61   ...15176 656805.a 
00000030  67 0A 13 89 7B                                     g..â{

00000000  01 04 00 00 00 32 71 DF                            .....2qﬂ 

00000000  01 04 64 07 DB 00 01 00  0E 00 09 00 29 00 04 00   ..d.€... ....)... 
00000010  00 03 C4 02 B1 02 E0 02  2E 02 75 02 00 01 39 00   ..ƒ.±.‡. ..u...9. 
00000020  DE 03 9F 00 AA 9E EE 43  00 00 02 82 0E EE 89 41   ﬁ.ü.™ûÓC ...Ç.ÓâA 
00000030  67 00 03 6D ED 69 55 3F  F3 00 00 08 B6 00 00 00   g..mÌiU? Û...∂... 
00000040  00 7D 4C 43 72 00 05 09  04 84 87 41 8C 00 0E F6   .}LCr... .ÑáAå..ˆ 
00000050  C8 00 00 00 00 00 0B 00  00 00 00 00 00 00 00 00   »....... ........ 
00000060  00 03 84 00 00 00 00 0C  75                        ..Ñ..... u

00000000  01 02 00 00 00 20 79 D2                            ..... y“ 

00000000  01 02 04 0B 00 00 00 F9  C6 7B 01 00 16 31 35 31   .......˘ ∆{...151 
00000010  37 36 36 35 36 38 30 35  0A 61 67 0A 13 89 7B      76656805 .ag..â{


