==================================================
±‡∫≈              : 9
–≠“È              : TCP
±æµÿµÿ÷∑          : 192.168.8.2
‘∂≥Ãµÿ÷∑          : 10.97.103.9
±æµÿ∂Àø⁄          : 9001
‘∂≥Ã∂Àø⁄          : 5001
±æµÿ÷˜ª˙          : 
‘∂≥Ã÷˜ª˙          : 
∑˛ŒÒ√˚≥∆          : 
 ˝æ›∞¸ ˝¡ø        : 120  {60 ; 60}
≤ª∫¨∑‚◊∞–≈œ¢µƒ ˝æ›¡ø: 1,809 ◊÷Ω⁄  {168 ; 1,641}
∞¸∫¨∑‚◊∞–≈œ¢µƒ◊‹ ˝æ›¡ø: 6,657 ◊÷Ω⁄  {2,568 ; 4,089}
 ˝æ›ÀŸ¬           : 0.0 KB/√Î
≤∂ªÒ ±º‰          : 2011-1-14 15:25:35:765
◊ÓΩ¸≤∂ªÒ∞¸µƒ ±º‰  : 2011-1-14 16:10:43:687
±æª˙ MAC µÿ÷∑     : 
‘∂∂À MAC µÿ÷∑     : 
±æª˙ IP À˘ Ùπ˙    : 
‘∂∂À IP À˘ Ùπ˙    : 
==================================================

00000000  01 04 00 00 00 32 71 DF                            .....2qﬂ 

00000000  01 04 64 07 DB 00 01 00  0E 00 0F 00 08 00 15 00   ..d.€... ........ 
00000010  00 03 AE 02 69 02 9F 02  13 02 18 01 EA 01 66 00   ..Æ.i.ü. ....Í.f. 
00000020  DA 03 92 00 A8 8A F7 43  01 00 03 38 42 C2 1A 41   ⁄.í.®ä˜C ...8B¬.A 
00000030  8A 00 05 8E 4B C7 5A 40  BF 00 00 25 DC 00 00 00   ä..éK«Z@ ø..%‹... 
00000040  00 1D 68 43 A7 00 07 3A  DC DF 73 41 99 00 1A 03   ..hCß..: ‹ﬂsAô... 
00000050  6A 00 01 00 00 00 0B 00  00 00 00 00 00 00 00 00   j....... ........ 
00000060  00 03 84 00 00 00 00 11  F8                        ..Ñ..... ¯

00000000  01 02 00 00 00 20 79 D2                            ..... y“ 

00000000  01 02 04 0B 00 00 00 F9  C6 7B 01 00 16 31 35 31   .......˘ ∆{...151 
00000010  37 36 36 35 36 39 30 31  0A 61 67 09 13 89 7B 7B   76656901 .ag..â{{ 
00000020  01 00 16 31 35 31 37 36  36 35 36 39 30 31 0A 61   ...15176 656901.a 
00000030  67 09 13 89 7B                                     g..â{

00000000  01 04 00 00 00 32 71 DF                            .....2qﬂ 

00000000  01 04 64 07 DB 00 01 00  0E 00 0F 00 0D 00 15 00   ..d.€... ........ 
00000010  00 03 B3 02 68 02 A1 02  14 02 16 01 EA 01 67 00   ..≥.h.°. ....Í.g. 
00000020  DC 03 91 00 A9 8A F7 43  01 00 03 38 4B 60 52 41   ‹.ë.©ä˜C ...8K`RA 
00000030  8D 00 05 8E 5D C2 A1 40  CF 00 00 25 DD 00 00 00   ç..é]¬°@ œ..%›... 
00000040  00 6C 61 43 A6 00 07 3A  F7 2D 4E 41 9A 00 1A 03   .laC¶..: ˜-NAö... 
00000050  6A 00 01 00 00 00 0B 00  00 00 00 00 00 00 00 00   j....... ........ 
00000060  00 03 84 00 00 00 00 B9  9D                        ..Ñ....π ù

00000000  01 02 00 00 00 20 79 D2                            ..... y“ 

00000000  01 02 04 0B 00 00 00 F9  C6 7B 01 00 16 31 35 31   .......˘ ∆{...151 
00000010  37 36 36 35 36 39 30 31  0A 61 67 09 13 89 7B 7B   76656901 .ag..â{{ 
00000020  01 00 16 31 35 31 37 36  36 35 36 39 30 31 0A 61   ...15176 656901.a 
00000030  67 09 13 89 7B                                     g..â{

00000000  01 04 00 00 00 32 71 DF                            .....2qﬂ 

00000000  01 04 64 07 DB 00 01 00  0E 00 0F 00 12 00 16 00   ..d.€... ........ 
00000010  00 03 B2 02 67 02 A2 02  13 02 16 01 E6 01 69 00   ..≤.g.¢. ....Ê.i. 
00000020  DE 03 92 00 A9 9E EE 43  00 00 03 38 54 70 C5 41   ﬁ.í.©ûÓC ...8Tp≈A 
00000030  8C 00 05 8E 72 D3 0E 40  DA 00 00 25 DE 00 00 00   å..ér”.@ ⁄..%ﬁ... 
00000040  00 1D 68 43 A7 00 07 3B  13 D9 47 41 9C 00 1A 03   ..hCß..; .ŸGAú... 
00000050  6A 00 00 00 01 00 0B 00  00 00 00 00 00 00 00 00   j....... ........ 
00000060  00 03 84 00 00 00 00 5F  74                        ..Ñ...._ t

00000000  01 02 00 00 00 20 79 D2                            ..... y“ 

00000000  01 02 04 0B 00 00 00 F9  C6 7B 01 00 16 31 35 31   .......˘ ∆{...151 
00000010  37 36 36 35 36 39 30 31  0A 61 67 09 13 89 7B 7B   76656901 .ag..â{{ 
00000020  01 00 16 31 35 31 37 36  36 35 36 39 30 31 0A 61   ...15176 656901.a 
00000030  67 09 13 89 7B                                     g..â{

00000000  01 04 00 00 00 32 71 DF                            .....2qﬂ 

00000000  01 04 64 07 DB 00 01 00  0E 00 0F 00 17 00 15 00   ..d.€... ........ 
00000010  00 03 B4 02 67 02 9E 02  17 02 11 01 E6 01 6B 00   ..¥.g.û. ....Ê.k. 
00000020  E2 03 91 00 A8 8A F7 43  01 00 03 38 5E 26 5A 41   ‚.ë.®ä˜C ...8^&ZA 
00000030  8E 00 05 8E 88 21 D5 41  18 00 00 25 DE 00 00 00   é..éà!’A ...%ﬁ... 
00000040  00 1D 68 43 A7 00 07 3B  2F B8 C4 41 94 00 1A 03   ..hCß..; /∏ƒAî... 
00000050  6A 00 00 00 00 00 0B 00  00 00 00 00 00 00 00 00   j....... ........ 
00000060  00 03 84 00 00 00 00 7B  56                        ..Ñ....{ V

00000000  01 02 00 00 00 20 79 D2                            ..... y“ 

00000000  01 02 04 0B 00 00 00 F9  C6 7B 01 00 16 31 35 31   .......˘ ∆{...151 
00000010  37 36 36 35 36 39 30 31  0A 61 67 09 13 89 7B 7B   76656901 .ag..â{{ 
00000020  01 00 16 31 35 31 37 36  36 35 36 39 30 31 0A 61   ...15176 656901.a 
00000030  67 09 13 89 7B                                     g..â{

00000000  01 04 00 00 00 32 71 DF                            .....2qﬂ 

00000000  01 04 64 07 DB 00 01 00  0E 00 0F 00 1C 00 15 00   ..d.€... ........ 
00000010  00 03 B4 02 67 02 A1 02  16 02 12 01 E4 01 66 00   ..¥.g.°. ....‰.f. 
00000020  DD 03 8F 00 A7 14 F3 43  01 00 03 38 67 0C 04 41   ›.è.ß.ÛC ...8g..A 
00000030  8E 00 05 8E 9D 2F E5 41  2B 00 00 25 DF 00 00 00   é..éù/ÂA +..%ﬂ... 
00000040  00 6C 61 43 A6 00 07 3B  4B 1B 2F 41 98 00 1A 03   .laC¶..; K./Aò... 
00000050  6A 00 00 00 01 00 0B 00  00 00 00 00 00 00 00 00   j....... ........ 
00000060  00 03 84 00 00 00 00 1F  B9                        ..Ñ..... π

00000000  01 02 00 00 00 20 79 D2                            ..... y“ 

00000000  01 02 04 0B 00 00 00 F9  C6 7B 01 00 16 31 35 31   .......˘ ∆{...151 
00000010  37 36 36 35 36 39 30 31  0A 61 67 09 13 89 7B 7B   76656901 .ag..â{{ 
00000020  01 00 16 31 35 31 37 36  36 35 36 39 30 31 0A 61   ...15176 656901.a 
00000030  67 09 13 89 7B                                     g..â{

00000000  01 04 00 00 00 32 71 DF                            .....2qﬂ 

00000000  01 04 64 07 DB 00 01 00  0E 00 0F 00 21 00 16 00   ..d.€... ....!... 
00000010  00 03 B2 02 67 02 A0 02  15 02 13 01 E4 01 69 00   ..≤.g.†. ....‰.i. 
00000020  DF 03 8F 00 A7 14 F3 43  01 00 03 38 70 F1 A2 41   ﬂ.è.ß.ÛC ...8pÒ¢A 
00000030  8C 00 05 8E B3 F3 E7 40  F0 00 00 25 E0 00 00 00   å..é≥ÛÁ@ ..%‡... 
00000040  00 A7 63 43 A6 00 07 3B  67 5D 4B 41 98 00 1A 03   .ßcC¶..; g]KAò... 
00000050  6A 00 00 00 01 00 0B 00  00 00 00 00 00 00 00 00   j....... ........ 
00000060  00 03 84 00 00 00 00 1F  CE                        ..Ñ..... Œ

00000000  01 02 00 00 00 20 79 D2                            ..... y“ 

00000000  01 02 04 0B 00 00 00 F9  C6 7B 01 00 16 31 35 31   .......˘ ∆{...151 
00000010  37 36 36 35 36 39 30 31  0A 61 67 09 13 89 7B 7B   76656901 .ag..â{{ 
00000020  01 00 16 31 35 31 37 36  36 35 36 39 30 31 0A 61   ...15176 656901.a 
00000030  67 09 13 89 7B                                     g..â{

00000000  01 04 00 00 00 32 71 DF                            .....2qﬂ 

00000000  01 04 64 07 DB 00 01 00  0E 00 0F 00 26 00 15 00   ..d.€... ....&... 
00000010  00 03 B4 02 68 02 A0 02  15 02 10 01 E1 01 6A 00   ..¥.h.†. ....·.j. 
00000020  E0 03 8F 00 A8 14 F3 43  01 00 03 38 7A 3D AC 41   ‡.è.®.ÛC ...8z=¨A 
00000030  8D 00 05 8E C8 EB D7 41  06 00 00 25 E1 00 00 00   ç..é»Î◊A ...%·... 
00000040  00 58 6A 43 A7 00 07 3B  82 FF 25 41 98 00 1A 03   .XjCß..; Çˇ%Aò... 
00000050  6A 00 00 00 01 00 0B 00  00 00 00 00 00 00 00 00   j....... ........ 
00000060  00 03 84 00 00 00 00 DA  CC                        ..Ñ....⁄ Ã

00000000  01 02 00 00 00 20 79 D2                            ..... y“ 

00000000  01 04 64 07 DB 00 01 00  0E 00 0F 00 26 00 15 00   ..d.€... ....&... 
00000010  00 03 B4 02 68 02 A0 02  15 02 10 01 E1 01 6A 00   ..¥.h.†. ....·.j. 
00000020  E0 03 8F 00 A8 14 F3 43  01 00 03 38 7A 3D AC 41   ‡.è.®.ÛC ...8z=¨A 
00000030  8D 00 05 8E C8 EB D7 41  06 00 00 25 E1 00 00 00   ç..é»Î◊A ...%·... 
00000040  00 58 6A 43 A7 00 07 3B  82 FF 25 41 98 00 1A 03   .XjCß..; Çˇ%Aò... 
00000050  6A 00 00 00 01 00 0B 00  00 00 00 00 00 00 00 00   j....... ........ 
00000060  00 03 84 00 00 00 00 DA  CC                        ..Ñ....⁄ Ã

00000000  01 02 00 00 00 20 79 D2                            ..... y“ 

00000000  01 02 04 0B 00 00 00 F9  C6 7B 01 00 16 31 35 31   .......˘ ∆{...151 
00000010  37 36 36 35 36 39 30 31  0A 61 67 09 13 89 7B 7B   76656901 .ag..â{{ 
00000020  01 00 16 31 35 31 37 36  36 35 36 39 30 31 0A 61   ...15176 656901.a 
00000030  67 09 13 89 7B                                     g..â{

00000000  01 04 00 00 00 32 71 DF                            .....2qﬂ 

00000000  01 04 64 07 DB 00 01 00  0E 00 0F 00 2B 00 16 00   ..d.€... ....+... 
00000010  00 03 B3 02 68 02 A3 02  15 02 0E 01 DF 01 67 00   ..≥.h.£. ....ﬂ.g. 
00000020  DC 03 90 00 A8 8A F7 43  01 00 03 38 83 60 52 41   ‹.ê.®ä˜C ...8É`RA 
00000030  8D 00 05 8E DE C5 17 41  04 00 00 25 E1 00 00 00   ç..éﬁ≈.A ...%·... 
00000040  00 1D 68 43 A7 00 07 3B  9E C3 07 41 9B 00 1A 03   ..hCß..; û√.Aõ... 
00000050  6A 00 01 00 01 00 0B 00  00 00 00 00 00 00 00 00   j....... ........ 
00000060  00 03 84 00 00 00 00 90  D4                        ..Ñ....ê ‘

00000000  01 02 00 00 00 20 79 D2                            ..... y“ 

00000000  01 02 04 0B 00 00 00 F9  C6 7B 01 00 16 31 35 31   .......˘ ∆{...151 
00000010  37 36 36 35 36 39 30 31  0A 61 67 09 13 89 7B 7B   76656901 .ag..â{{ 
00000020  01 00 16 31 35 31 37 36  36 35 36 39 30 31 0A 61   ...15176 656901.a 
00000030  67 09 13 89 7B                                     g..â{

00000000  01 04 00 00 00 32 71 DF                            .....2qﬂ 

00000000  01 04 64 07 DB 00 01 00  0E 00 0F 00 30 00 15 00   ..d.€... ....0... 
00000010  00 03 B3 02 6A 02 A1 02  15 02 0D 01 E0 01 6B 00   ..≥.j.°. ....‡.k. 
00000020  E1 03 8F 00 A8 8A F7 43  01 00 03 38 8C 91 4E 41   ·.è.®ä˜C ...8åëNA 
00000030  8C 00 05 8E F3 D3 27 40  97 00 00 25 E2 00 00 00   å..éÛ”'@ ó..%‚... 
00000040  00 A7 63 43 A6 00 07 3B  BA 5A 91 41 99 00 1A 03   .ßcC¶..; ∫ZëAô... 
00000050  6A 00 01 00 01 00 0B 00  00 00 00 00 00 00 00 00   j....... ........ 
00000060  00 03 84 00 00 00 00 5C  BA                        ..Ñ....\ ∫

00000000  01 02 00 00 00 20 79 D2                            ..... y“ 

00000000  01 02 04 0B 00 00 00 F9  C6 7B 01 00 16 31 35 31   .......˘ ∆{...151 
00000010  37 36 36 35 36 39 30 31  0A 61 67 09 13 89 7B 7B   76656901 .ag..â{{ 
00000020  01 00 16 31 35 31 37 36  36 35 36 39 30 31 0A 61   ...15176 656901.a 
00000030  67 09 13 89 7B                                     g..â{

00000000  01 04 00 00 00 32 71 DF                            .....2qﬂ 

00000000  01 04 64 07 DB 00 01 00  0E 00 0F 00 35 00 15 00   ..d.€... ....5... 
00000010  00 03 B4 02 6B 02 A5 02  16 02 09 01 DD 01 6C 00   ..¥.k.•. ....›.l. 
00000020  DF 03 8F 00 A9 14 F3 43  01 00 03 38 95 08 38 41   ﬂ.è.©.ÛC ...8ï.8A 
00000030  8C 00 05 8F 06 B2 35 3F  C4 00 00 25 E2 00 00 00   å..è.≤5? ƒ..%‚... 
00000040  00 A7 63 43 A6 00 07 3B  D6 45 EF 41 9C 00 1A 03   .ßcC¶..; ÷EÔAú... 
00000050  6A 00 01 00 01 00 0B 00  00 00 00 00 00 00 00 00   j....... ........ 
00000060  00 03 84 00 00 00 00 50  52                        ..Ñ....P R

00000000  01 02 00 00 00 20 79 D2                            ..... y“ 

00000000  01 02 04 0B 00 00 00 F9  C6                        .......˘ ∆


==================================================
±‡∫≈              : 7
–≠“È              : TCP
±æµÿµÿ÷∑          : 192.168.8.2
‘∂≥Ãµÿ÷∑          : 10.97.103.8
±æµÿ∂Àø⁄          : 9001
‘∂≥Ã∂Àø⁄          : 5001
±æµÿ÷˜ª˙          : 
‘∂≥Ã÷˜ª˙          : 
∑˛ŒÒ√˚≥∆          : 
 ˝æ›∞¸ ˝¡ø        : 120  {60 ; 60}
≤ª∫¨∑‚◊∞–≈œ¢µƒ ˝æ›¡ø: 1,809 ◊÷Ω⁄  {168 ; 1,641}
∞¸∫¨∑‚◊∞–≈œ¢µƒ◊‹ ˝æ›¡ø: 6,657 ◊÷Ω⁄  {2,568 ; 4,089}
 ˝æ›ÀŸ¬           : 0.0 KB/√Î
≤∂ªÒ ±º‰          : 2011-1-14 15:25:35:765
◊ÓΩ¸≤∂ªÒ∞¸µƒ ±º‰  : 2011-1-14 16:10:43:578
±æª˙ MAC µÿ÷∑     : 
‘∂∂À MAC µÿ÷∑     : 
±æª˙ IP À˘ Ùπ˙    : 
‘∂∂À IP À˘ Ùπ˙    : 
==================================================

00000000  01 04 00 00 00 32 71 DF                            .....2qﬂ 

00000000  01 04 64 07 DB 00 01 00  0E 00 0E 00 2F 00 39 00   ..d.€... ..../.9. 
00000010  53 03 A0 02 60 02 7B 02  52 01 D4 01 93 01 AD 01   S.†.`.{. R.‘.ì.≠. 
00000020  07 03 C6 00 B3 56 A5 42  B7 00 01 E2 93 00 11 41   ..∆.≥V•B ∑..‚ì..A 
00000030  41 00 04 2C 97 06 C9 3E  B1 00 00 03 12 00 00 00   A..,ó.…> ±....... 
00000040  00 65 0D 43 A0 00 06 11  90 A4 5F 40 AB 00 0A 83   .e.C†... ê§_@´..É 
00000050  EA 00 00 00 00 00 0F 00  00 00 00 00 00 00 00 00   Í....... ........ 
00000060  00 03 84 00 00 00 00 9F  7A                        ..Ñ....ü z

00000000  01 02 00 00 00 20 79 D2                            ..... y“ 

00000000  01 02 04 0F 00 00 00 F8  F6 7B 01 00 16 31 35 31   .......¯ ˆ{...151 
00000010  37 36 36 35 36 39 31 30  0A 61 67 08 13 89 7B 7B   76656910 .ag..â{{ 
00000020  01 00 16 31 35 31 37 36  36 35 36 39 31 30 0A 61   ...15176 656910.a 
00000030  67 08 13 89 7B                                     g..â{

00000000  01 04 00 00 00 32 71 DF                            .....2qﬂ 

00000000  01 04 64 07 DB 00 01 00  0E 00 0E 00 34 00 37 00   ..d.€... ....4.7. 
00000010  53 03 9F 02 5F 02 7C 02  51 01 D1 01 90 01 AD 01   S.ü._.|. Q.—.ê.≠. 
00000020  07 03 C6 00 B3 7E 93 42  B5 00 01 E2 9A 1B F8 41   ..∆.≥~ìB µ..‚ö.¯A 
00000030  3F 00 04 2C A3 31 13 3E  A7 00 00 03 12 00 00 00   ?..,£1.> ß....... 
00000040  00 EF 09 43 9F 00 06 11  AB 02 A0 40 B3 00 0A 83   .Ô.Cü... ´.†@≥..É 
00000050  EA 00 00 00 00 00 0F 00  00 00 00 00 00 00 00 00   Í....... ........ 
00000060  00 03 84 00 00 00 00 E7  9C                        ..Ñ....Á ú

00000000  01 02 00 00 00 20 79 D2                            ..... y“ 

00000000  01 02 04 0F 00 00 00 F8  F6 7B 01 00 16 31 35 31   .......¯ ˆ{...151 
00000010  37 36 36 35 36 39 31 30  0A 61 67 08 13 89 7B 7B   76656910 .ag..â{{ 
00000020  01 00 16 31 35 31 37 36  36 35 36 39 31 30 0A 61   ...15176 656910.a 
00000030  67 08 13 89 7B                                     g..â{

00000000  01 04 00 00 00 32 71 DF                            .....2qﬂ 

00000000  01 04 64 07 DB 00 01 00  0E 00 0E 00 39 00 38 00   ..d.€... ....9.8. 
00000010  53 03 9D 02 61 02 79 02  53 01 CD 01 90 01 AC 01   S.ù.a.y. S.Õ.ê.¨. 
00000020  08 03 C6 00 B4 A6 81 42  B3 00 01 E2 A1 03 69 41   ..∆.¥¶ÅB ≥..‚°.iA 
00000030  3B 00 04 2C AF 87 EA 3E  CE 00 00 03 12 00 00 00   ;..,ØáÍ> Œ....... 
00000040  00 EF 09 43 9F 00 06 11  C7 63 45 40 9F 00 0A 83   .Ô.Cü... «cE@ü..É 
00000050  EA 00 00 00 00 00 0F 00  00 00 00 00 00 00 00 00   Í....... ........ 
00000060  00 03 84 00 00 00 00 B1  21                        ..Ñ....± !

00000000  01 02 00 00 00 20 79 D2                            ..... y“ 

00000000  01 02 04 0F 00 00 00 F8  F6 7B 01 00 16 31 35 31   .......¯ ˆ{...151 
00000010  37 36 36 35 36 39 31 30  0A 61 67 08 13 89 7B 7B   76656910 .ag..â{{ 
00000020  01 00 16 31 35 31 37 36  36 35 36 39 31 30 0A 61   ...15176 656910.a 
00000030  67 08 13 89 7B                                     g..â{

00000000  01 04 00 00 00 32 71 DF                            .....2qﬂ 

00000000  01 04 64 07 DB 00 01 00  0E 00 0F 00 02 00 38 00   ..d.€... ......8. 
00000010  53 03 9F 02 60 02 7C 02  51 01 CE 01 8C 01 AD 01   S.ü.`.|. Q.Œ.å.≠. 
00000020  06 03 C6 00 B3 42 AE 42  B8 00 01 E2 A8 71 A7 41   ..∆.≥BÆB ∏..‚®qßA 
00000030  41 00 04 2C BA 31 13 3E  A7 00 00 03 12 00 00 00   A..,∫1.> ß....... 
00000040  00 65 0D 43 A0 00 06 11  E3 86 B7 40 B3 00 0A 83   .e.C†... „Ü∑@≥..É 
00000050  EA 00 00 00 00 00 0F 00  00 00 00 00 00 00 00 00   Í....... ........ 
00000060  00 03 84 00 00 00 00 4B  06                        ..Ñ....K .

00000000  01 02 00 00 00 20 79 D2                            ..... y“ 

00000000  01 02 04 0F 00 00 00 F8  F6 7B 01 00 16 31 35 31   .......¯ ˆ{...151 
00000010  37 36 36 35 36 39 31 30  0A 61 67 08 13 89 7B 7B   76656910 .ag..â{{ 
00000020  01 00 16 31 35 31 37 36  36 35 36 39 31 30 0A 61   ...15176 656910.a 
00000030  67 08 13 89 7B                                     g..â{

00000000  01 04 00 00 00 32 71 DF                            .....2qﬂ 

00000000  01 04 64 07 DB 00 01 00  0E 00 0F 00 07 00 38 00   ..d.€... ......8. 
00000010  53 03 9E 02 60 02 7B 02  53 01 CD 01 8D 01 AD 01   S.û.`.{. S.Õ.ç.≠. 
00000020  07 03 C6 00 B4 42 AE 42  B8 00 01 E2 AF EA B7 41   ..∆.¥BÆB ∏..‚ØÍ∑A 
00000030  40 00 04 2C C6 31 13 3E  A7 00 00 03 12 00 00 00   @..,∆1.> ß....... 
00000040  00 8C 19 43 A1 00 06 11  FF DE 4D 40 A8 00 0A 83   .å.C°... ˇﬁM@®..É 
00000050  EA 00 00 00 00 00 0F 00  00 00 00 00 00 00 00 00   Í....... ........ 
00000060  00 03 84 00 00 00 00 57  77                        ..Ñ....W w

00000000  01 02 00 00 00 20 79 D2                            ..... y“ 

00000000  01 02 04 0F 00 00 00 F8  F6 7B 01 00 16 31 35 31   .......¯ ˆ{...151 
00000010  37 36 36 35 36 39 31 30  0A 61 67 08 13 89 7B 7B   76656910 .ag..â{{ 
00000020  01 00 16 31 35 31 37 36  36 35 36 39 31 30 0A 61   ...15176 656910.a 
00000030  67 08 13 89 7B                                     g..â{

00000000  01 04 00 00 00 32 71 DF                            .....2qﬂ 

00000000  01 04 64 07 DB 00 01 00  0E 00 0F 00 0C 00 3A 00   ..d.€... ......:. 
00000010  53 03 9E 02 5F 02 7A 02  51 01 CD 01 8A 01 AE 01   S.û._.z. Q.Õ.ä.Æ. 
00000020  07 03 C6 00 B3 2E B7 42  B9 00 01 E2 B6 76 83 41   ..∆.≥.∑B π..‚∂vÉA 
00000030  42 00 04 2C D1 31 13 3E  A7 00 00 03 12 00 00 00   B..,—1.> ß....... 
00000040  00 65 0D 43 A0 00 06 12  1A B6 5B 40 AB 00 0A 83   .e.C†... .∂[@´..É 
00000050  EA 00 00 00 00 00 0F 00  00 00 00 00 00 00 00 00   Í....... ........ 
00000060  00 03 84 00 00 00 00 0F  58                        ..Ñ..... X

00000000  01 02 00 00 00 20 79 D2                            ..... y“ 

00000000  01 02 04 0F 00 00 00 F8  F6 7B 01 00 16 31 35 31   .......¯ ˆ{...151 
00000010  37 36 36 35 36 39 31 30  0A 61 67 08 13 89 7B 7B   76656910 .ag..â{{ 
00000020  01 00 16 31 35 31 37 36  36 35 36 39 31 30 0A 61   ...15176 656910.a 
00000030  67 08 13 89 7B                                     g..â{

00000000  01 04 00 00 00 32 71 DF                            .....2qﬂ 

00000000  01 04 64 07 DB 00 01 00  0E 00 0F 00 11 00 38 00   ..d.€... ......8. 
00000010  53 03 9F 02 5E 02 7B 02  52 01 CB 01 8A 01 AF 01   S.ü.^.{. R.À.ä.Ø. 
00000020  08 03 C6 00 B3 42 AE 42  B8 00 01 E2 BD 99 91 41   ..∆.≥BÆB ∏..‚ΩôëA 
00000030  42 00 04 2C DD 31 13 3E  A7 00 00 03 12 00 00 00   B..,›1.> ß....... 
00000040  00 A0 10 43 A0 00 06 12  36 E3 85 40 AB 00 0A 83   .†.C†... 6„Ö@´..É 
00000050  EA 00 00 00 00 00 0F 00  00 00 00 00 00 00 00 00   Í....... ........ 
00000060  00 03 84 00 00 00 00 A9  85                        ..Ñ....© Ö

00000000  01 02 00 00 00 20 79 D2                            ..... y“ 

00000000  01 04 64 07 DB 00 01 00  0E 00 0F 00 11 00 38 00   ..d.€... ......8. 
00000010  53 03 9F 02 5E 02 7B 02  52 01 CB 01 8A 01 AF 01   S.ü.^.{. R.À.ä.Ø. 
00000020  08 03 C6 00 B3 42 AE 42  B8 00 01 E2 BD 99 91 41   ..∆.≥BÆB ∏..‚ΩôëA 
00000030  42 00 04 2C DD 31 13 3E  A7 00 00 03 12 00 00 00   B..,›1.> ß....... 
00000040  00 A0 10 43 A0 00 06 12  36 E3 85 40 AB 00 0A 83   .†.C†... 6„Ö@´..É 
00000050  EA 00 00 00 00 00 0F 00  00 00 00 00 00 00 00 00   Í....... ........ 
00000060  00 03 84 00 00 00 00 A9  85                        ..Ñ....© Ö

00000000  01 02 00 00 00 20 79 D2                            ..... y“ 

00000000  01 02 04 0F 00 00 00 F8  F6 7B 01 00 16 31 35 31   .......¯ ˆ{...151 
00000010  37 36 36 35 36 39 31 30  0A 61 67 08 13 89 7B 7B   76656910 .ag..â{{ 
00000020  01 00 16 31 35 31 37 36  36 35 36 39 31 30 0A 61   ...15176 656910.a 
00000030  67 08 13 89 7B                                     g..â{

00000000  01 04 00 00 00 32 71 DF                            .....2qﬂ 

00000000  01 04 64 07 DB 00 01 00  0E 00 0F 00 16 00 39 00   ..d.€... ......9. 
00000010  53 03 9E 02 61 02 79 02  52 01 C7 01 88 01 AD 01   S.û.a.y. R.«.à.≠. 
00000020  09 03 C6 00 B4 A6 81 42  B3 00 01 E2 C4 86 E8 41   ..∆.¥¶ÅB ≥..‚ƒÜËA 
00000030  3B 00 04 2C E8 DC 7F 3E  BA 00 00 03 12 00 00 00   ;..,Ë‹> ∫....... 
00000040  00 8C FB 43 9E 00 06 12  52 F1 4F 40 A1 00 0A 83   .å˚Cû... RÒO@°..É 
00000050  EA 00 00 00 00 00 0F 00  00 00 00 00 00 00 00 00   Í....... ........ 
00000060  00 03 84 00 00 00 00 A1  20                        ..Ñ....°  

00000000  01 02 00 00 00 20 79 D2                            ..... y“ 

00000000  01 02 04 0F 00 00 00 F8  F6 7B 01 00 16 31 35 31   .......¯ ˆ{...151 
00000010  37 36 36 35 36 39 31 30  0A 61 67 08 13 89 7B 7B   76656910 .ag..â{{ 
00000020  01 00 16 31 35 31 37 36  36 35 36 39 31 30 0A 61   ...15176 656910.a 
00000030  67 08 13 89 7B                                     g..â{

00000000  01 04 00 00 00 32 71 DF                            .....2qﬂ 

00000000  01 04 64 07 DB 00 01 00  0E 00 0F 00 1B 00 39 00   ..d.€... ......9. 
00000010  53 03 A0 02 61 02 7B 02  54 01 C7 01 88 01 AE 01   S.†.a.{. T.«.à.Æ. 
00000020  09 03 C6 00 B4 42 AE 42  B8 00 01 E2 CB EB 88 41   ..∆.¥BÆB ∏..‚ÀÎàA 
00000030  41 00 04 2C F4 B2 35 3E  C4 00 00 03 12 00 00 00   A..,Ù≤5> ƒ....... 
00000040  00 DB 12 43 A0 00 06 12  6E 28 12 40 A4 00 0A 83   .€.C†... n(.@§..É 
00000050  EA 00 00 00 00 00 0F 00  00 00 00 00 00 00 00 00   Í....... ........ 
00000060  00 03 84 00 00 00 00 D5  1D                        ..Ñ....’ .

00000000  01 02 00 00 00 20 79 D2                            ..... y“ 

00000000  01 02 04 0F 00 00 00 F8  F6 7B 01 00 16 31 35 31   .......¯ ˆ{...151 
00000010  37 36 36 35 36 39 31 30  0A 61 67 08 13 89 7B 7B   76656910 .ag..â{{ 
00000020  01 00 16 31 35 31 37 36  36 35 36 39 31 30 0A 61   ...15176 656910.a 
00000030  67 08 13 89 7B                                     g..â{

00000000  01 04 00 00 00 32 71 DF                            .....2qﬂ 

00000000  01 04 64 07 DB 00 01 00  0E 00 0F 00 20 00 37 00   ..d.€... .... .7. 
00000010  53 03 A0 02 61 02 7B 02  53 01 C4 01 84 01 AD 01   S.†.a.{. S.ƒ.Ñ.≠. 
00000020  0A 03 C6 00 B3 6A 9C 42  B6 00 01 E2 D2 75 2C 41   ..∆.≥júB ∂..‚“u,A 
00000030  3F 00 04 2D 00 DC 7F 3E  BA 00 00 03 12 00 00 00   ?..-.‹> ∫....... 
00000040  00 A0 10 43 A0 00 06 12  89 E7 90 40 A7 00 0A 83   .†.C†... âÁê@ß..É 
00000050  EA 00 00 00 00 00 0F 00  00 00 00 00 00 00 00 00   Í....... ........ 
00000060  00 03 84 00 00 00 00 C8  18                        ..Ñ....» .

00000000  01 02 00 00 00 20 79 D2                            ..... y“ 

00000000  01 02 04 0F 00 00 00 F8  F6                        .......¯ ˆ


==================================================
±‡∫≈              : 11
–≠“È              : TCP
±æµÿµÿ÷∑          : 192.168.8.2
‘∂≥Ãµÿ÷∑          : 10.97.103.7
±æµÿ∂Àø⁄          : 9001
‘∂≥Ã∂Àø⁄          : 5001
±æµÿ÷˜ª˙          : 
‘∂≥Ã÷˜ª˙          : 
∑˛ŒÒ√˚≥∆          : 
 ˝æ›∞¸ ˝¡ø        : 119  {59 ; 60}
≤ª∫¨∑‚◊∞–≈œ¢µƒ ˝æ›¡ø: 1,853 ◊÷Ω⁄  {168 ; 1,685}
∞¸∫¨∑‚◊∞–≈œ¢µƒ◊‹ ˝æ›¡ø: 6,661 ◊÷Ω⁄  {2,528 ; 4,133}
 ˝æ›ÀŸ¬           : 0.0 KB/√Î
≤∂ªÒ ±º‰          : 2011-1-14 15:25:35:765
◊ÓΩ¸≤∂ªÒ∞¸µƒ ±º‰  : 2011-1-14 16:10:49:812
±æª˙ MAC µÿ÷∑     : 
‘∂∂À MAC µÿ÷∑     : 
±æª˙ IP À˘ Ùπ˙    : 
‘∂∂À IP À˘ Ùπ˙    : 
==================================================

00000000  01 04 00 00 00 32 71 DF                            .....2qﬂ 

00000000  01 04 64 07 DB 00 01 00  0D 00 0C 00 00 00 12 00   ..d.€... ........ 
00000010  00 03 BF 02 76 02 AD 02  36 01 E4 01 CC 01 B6 00   ..ø.v.≠. 6.‰.Ã.∂. 
00000020  DF 03 A0 00 B2 C1 8D 42  90 00 01 99 D7 91 A0 41   ﬂ.†.≤¡çB ê..ô◊ë†A 
00000030  1C 00 02 8D A3 B2 35 40  44 00 00 14 2B 00 00 00   ...ç£≤5@ D...+... 
00000040  00 86 26 43 54 00 04 BB  15 5F D1 41 25 00 10 76   .Ü&CT..ª ._—A%..v 
00000050  BB 00 02 00 02 00 09 00  00 00 00 00 00 00 00 00   ª....... ........ 
00000060  00 03 84 00 00 00 00 8F  BA                        ..Ñ....è ∫

00000000  01 02 00 00 00 20 79 D2                            ..... y“ 

00000000  01 02 04 09 00 00 00 F8  7E 7B 01 00 16 31 35 31   .......¯ ~{...151 
00000010  37 36 36 35 37 30 32 36  0A 61 67 07 13 89 7B 7B   76657026 .ag..â{{ 
00000020  01 00 16 31 35 31 37 36  36 35 37 30 32 36 0A 61   ...15176 657026.a 
00000030  67 07 13 89 7B                                     g..â{

00000000  01 04 00 00 00 32 71 DF                            .....2qﬂ 

00000000  01 04 64 07 DB 00 01 00  0D 00 0C 00 05 00 13 00   ..d.€... ........ 
00000010  00 03 BD 02 75 02 AC 02  35 01 E2 01 C9 01 BD 00   ..Ω.u.¨. 5.‚.….Ω. 
00000020  D7 03 A1 00 B2 C1 8D 42  90 00 01 99 DE 32 98 41   ◊.°.≤¡çB ê..ôﬁ2òA 
00000030  1C 00 02 8D AF 1E 31 40  67 00 00 14 2B 00 00 00   ...çØ.1@ g...+... 
00000040  00 36 4A 43 58 00 04 BB  28 48 F7 41 28 00 10 76   .6JCX..ª (H˜A(..v 
00000050  BB 00 02 00 02 00 09 00  00 00 00 00 00 00 00 00   ª....... ........ 
00000060  00 03 84 00 00 00 00 0C  BC                        ..Ñ..... º

00000000  01 02 00 00 00 20 79 D2                            ..... y“ 

00000000  01 02 04 09 00 00 00 F8  7E 7B 01 00 16 31 35 31   .......¯ ~{...151 
00000010  37 36 36 35 37 30 32 36  0A 61 67 07 13 89 7B 7B   76657026 .ag..â{{ 
00000020  01 00 16 31 35 31 37 36  36 35 37 30 32 36 0A 61   ...15176 657026.a 
00000030  67 07 13 89 7B                                     g..â{

00000000  01 04 00 00 00 32 71 DF                            .....2qﬂ 

00000000  01 04 64 07 DB 00 01 00  0D 00 0C 00 0A 00 13 00   ..d.€... ........ 
00000010  00 03 BE 02 74 02 AE 02  35 01 E1 01 C9 01 A3 00   ..æ.t.Æ. 5.·.….£. 
00000020  E6 03 A0 00 B2 D5 83 42  8F 00 01 99 E5 0E A6 41   Ê.†.≤’ÉB è..ôÂ.¶A 
00000030  1C 00 02 8D BA 0D C5 40  5C 00 00 14 2C 00 00 00   ...ç∫.≈@ \...,... 
00000040  00 86 26 43 54 00 04 BB  3A EF 43 41 27 00 10 76   .Ü&CT..ª :ÔCA'..v 
00000050  BB 00 02 00 02 00 09 00  00 00 00 00 00 00 00 00   ª....... ........ 
00000060  00 03 84 00 00 00 00 AB  62                        ..Ñ....´ b

00000000  01 02 00 00 00 20 79 D2                            ..... y“ 

00000000  01 02 04 09 00 00 00 F8  7E 7B 01 00 16 31 35 31   .......¯ ~{...151 
00000010  37 36 36 35 37 30 32 36  0A 61 67 07 13 89 7B 7B   76657026 .ag..â{{ 
00000020  01 00 16 31 35 31 37 36  36 35 37 30 32 36 0A 61   ...15176 657026.a 
00000030  67 07 13 89 7B                                     g..â{

00000000  01 04 00 00 00 32 71 DF                            .....2qﬂ 

00000000  01 04 64 07 DB 00 01 00  0D 00 0C 00 0F 00 13 00   ..d.€... ........ 
00000010  00 03 BD 02 75 02 AF 02  34 01 DE 01 C5 01 B4 00   ..Ω.u.Ø. 4.ﬁ.≈.¥. 
00000020  D9 03 A0 00 B2 E9 7A 42  8E 00 01 99 EC 35 34 41   Ÿ.†.≤ÈzB é..ôÏ54A 
00000030  1A 00 02 8D C5 BD E9 40  5F 00 00 14 2C 00 00 00   ...ç≈ΩÈ@ _...,... 
00000040  00 5F FD 43 50 00 04 BB  4D 2A A4 41 27 00 10 76   ._˝CP..ª M*§A'..v 
00000050  BB 00 02 00 02 00 09 00  00 00 00 00 00 00 00 00   ª....... ........ 
00000060  00 03 84 00 00 00 00 B6  06                        ..Ñ....∂ .

00000000  01 02 00 00 00 20 79 D2                            ..... y“ 

00000000  01 02 04 09 00 00 00 F8  7E 7B 01 00 16 31 35 31   .......¯ ~{...151 
00000010  37 36 36 35 37 30 32 36  0A 61 67 07 13 89 7B 7B   76657026 .ag..â{{ 
00000020  01 00 16 31 35 31 37 36  36 35 37 30 32 36 0A 61   ...15176 657026.a 
00000030  67 07 13 89 7B                                     g..â{

00000000  01 04 00 00 00 32 71 DF                            .....2qﬂ 

00000000  01 04 64 07 DB 00 01 00  0D 00 0C 00 14 00 12 00   ..d.€... ........ 
00000010  00 03 B9 02 73 02 AB 02  35 01 DE 01 C5 01 AB 00   ..π.s.´. 5.ﬁ.≈.´. 
00000020  D6 03 A0 00 B2 E9 7A 42  8E 00 01 99 F3 83 34 41   ÷.†.≤ÈzB é..ôÛÉ4A 
00000030  19 00 02 8D D1 AD 7C 40  54 00 00 14 2C 00 00 00   ...ç—≠|@ T...,... 
00000040  00 AE 13 43 52 00 04 BB  5F BA D5 41 22 00 10 76   .Æ.CR..ª _∫’A"..v 
00000050  BB 00 01 00 02 00 09 00  00 00 00 00 00 00 00 00   ª....... ........ 
00000060  00 03 84 00 00 00 00 AF  5F                        ..Ñ....Ø _

00000000  01 02 00 00 00 20 79 D2                            ..... y“ 

00000000  01 02 04 09 00 00 00 F8  7E 7B 01 00 16 31 35 31   .......¯ ~{...151 
00000010  37 36 36 35 37 30 32 36  0A 61 67 07 13 89 7B 7B   76657026 .ag..â{{ 
00000020  01 00 16 31 35 31 37 36  36 35 37 30 32 36 0A 61   ...15176 657026.a 
00000030  67 07 13 89 7B                                     g..â{

00000000  01 04 00 00 00 32 71 DF                            .....2qﬂ 

00000000  7B 01 00 16 31 35 31 37  36 36 35 37 30 32 36 0A   {...1517 6657026. 
00000010  61 67 07 13 89 7B                                  ag..â{

00000000  01 02 00 00 00 20 79 D2                            ..... y“ 

00000000  7B 01 00 16 31 35 31 37  36 36 35 37 30 32 36 0A   {...1517 6657026. 
00000010  61 67 07 13 89 7B 01 04  64 07 DB 00 01 00 0D 00   ag..â{.. d.€..... 
00000020  0C 00 19 00 1C 00 00 03  B9 02 74 02 AB 02 34 01   ........ π.t.´.4. 
00000030  DF 01 C6 01 BE 00 F1 03  A0 00 B2 E9 7A 42 8E 00   ﬂ.∆.æ.Ò. †.≤ÈzBé. 
00000040  01 99 FA 79 63 41 19 00  02 8D DC 69 55 40 73 00   .ô˙ycA.. .ç‹iU@s. 
00000050  00 14 2D 00 00 00 00 AE  13 43 52 00 04 BB 72 04   ..-....Æ .CR..ªr. 
00000060  FB 41 24 00 10 76 BB 00  02 00 02 00 09 00 00 00   ˚A$..vª. ........ 
00000070  00 00 00 00 00 00 00 03  84 00 00 00 00 9A 23 01   ........ Ñ....ö#. 
00000080  02 04 09 00 00 00 F8 7E  7B 01 00 16 31 35 31 37   ......¯~ {...1517 
00000090  36 36 35 37 30 32 36 0A  61 67 07 13 89 7B 7B 01   6657026. ag..â{{. 
000000A0  00 16 31 35 31 37 36 36  35 37 30 32 36 0A 61 67   ..151766 57026.ag 
000000B0  07 13 89 7B                                        ..â{

00000000  01 04 00 00 00 32 71 DF                            .....2qﬂ 

00000000  01 04 64 07 DB 00 01 00  0D 00 0C 00 1E 00 12 00   ..d.€... ........ 
00000010  00 03 BA 02 74 02 A9 02  34 01 DB 01 C3 01 A4 00   ..∫.t.©. 4.€.√.§. 
00000020  DC 03 A0 00 B2 E9 7A 42  8E 00 01 9A 01 E1 26 41   ‹.†.≤ÈzB é..ö.·&A 
00000030  19 00 02 8D E7 38 0F 40  52 00 00 14 2D 00 00 00   ...çÁ8.@ R...-... 
00000040  00 C0 45 43 57 00 04 BB  84 68 7B 41 25 00 10 76   .¿ECW..ª Ñh{A%..v 
00000050  BB 00 02 00 02 00 09 00  00 00 00 00 00 00 00 00   ª....... ........ 
00000060  00 03 84 00 00 00 00 0F  0A                        ..Ñ..... .

00000000  01 02 00 00 00 20 79 D2                            ..... y“ 

00000000  01 02 04 09 00 00 00 F8  7E 7B 01 00 16 31 35 31   .......¯ ~{...151 
00000010  37 36 36 35 37 30 32 36  0A 61 67 07 13 89 7B 7B   76657026 .ag..â{{ 
00000020  01 00 16 31 35 31 37 36  36 35 37 30 32 36 0A 61   ...15176 657026.a 
00000030  67 07 13 89 7B                                     g..â{

00000000  01 04 00 00 00 32 71 DF                            .....2qﬂ 

00000000  01 04 64 07 DB 00 01 00  0D 00 0C 00 23 00 13 00   ..d.€... ....#... 
00000010  00 03 BF 02 74 02 AD 02  35 01 DC 01 C3 01 9A 00   ..ø.t.≠. 5.‹.√.ö. 
00000020  DF 03 A1 00 B2 D5 83 42  8F 00 01 9A 08 E9 78 41   ﬂ.°.≤’ÉB è..ö.ÈxA 
00000030  1C 00 02 8D F3 98 57 40  59 00 00 14 2D 00 00 00   ...çÛòW@ Y...-... 
00000040  00 24 18 43 53 00 04 BB  97 97 11 41 25 00 10 76   .$.CS..ª óó.A%..v 
00000050  BB 00 01 00 02 00 09 00  00 00 00 00 00 00 00 00   ª....... ........ 
00000060  00 03 84 00 00 00 00 F5  20                        ..Ñ....ı  

00000000  01 02 00 00 00 20 79 D2                            ..... y“ 

00000000  01 02 04 09 00 00 00 F8  7E 7B 01 00 16 31 35 31   .......¯ ~{...151 
00000010  37 36 36 35 37 30 32 36  0A 61 67 07 13 89 7B 7B   76657026 .ag..â{{ 
00000020  01 00 16 31 35 31 37 36  36 35 37 30 32 36 0A 61   ...15176 657026.a 
00000030  67 07 13 89 7B                                     g..â{

00000000  01 04 00 00 00 32 71 DF                            .....2qﬂ 

00000000  01 04 64 07 DB 00 01 00  0D 00 0C 00 28 00 12 00   ..d.€... ....(... 
00000010  00 03 C3 02 74 02 AF 02  33 01 D9 01 C1 01 AB 00   ..√.t.Ø. 3.Ÿ.¡.´. 
00000020  DB 03 A0 00 B2 D5 83 42  8F 00 01 9A 0F 80 89 41   €.†.≤’ÉB è..ö.ÄâA 
00000030  1E 00 02 8D FE B9 30 40  6F 00 00 14 2E 00 00 00   ...ç˛π0@ o....... 
00000040  00 38 0F 43 52 00 04 BB  A9 EE 9E 41 29 00 10 76   .8.CR..ª ©ÓûA)..v 
00000050  BB 00 02 00 02 00 09 00  00 00 00 00 00 00 00 00   ª....... ........ 
00000060  00 03 84 00 00 00 00 A3  0B                        ..Ñ....£ .

00000000  01 02 00 00 00 20 79 D2                            ..... y“ 

00000000  01 02 04 09 00 00 00 F8  7E 7B 01 00 16 31 35 31   .......¯ ~{...151 
00000010  37 36 36 35 37 30 32 36  0A 61 67 07 13 89 7B 7B   76657026 .ag..â{{ 
00000020  01 00 16 31 35 31 37 36  36 35 37 30 32 36 0A 61   ...15176 657026.a 
00000030  67 07 13 89 7B                                     g..â{

00000000  01 04 00 00 00 32 71 DF                            .....2qﬂ 

00000000  01 04 64 07 DB 00 01 00  0D 00 0C 00 2D 00 12 00   ..d.€... ....-... 
00000010  00 03 C6 02 74 02 AC 02  32 01 D8 01 C1 01 AC 00   ..∆.t.¨. 2.ÿ.¡.¨. 
00000020  E8 03 A0 00 B2 D5 83 42  8F 00 01 9A 16 93 F2 41   Ë.†.≤’ÉB è..ö.ìÚA 
00000030  20 00 02 8E 09 B9 30 40  6F 00 00 14 2E 00 00 00    ..é.π0@ o....... 
00000040  00 5E 38 43 56 00 04 BB  BC C9 1A 41 2A 00 10 76   .^8CV..ª º….A*..v 
00000050  BB 00 02 00 02 00 09 00  00 00 00 00 00 00 00 00   ª....... ........ 
00000060  00 03 84 00 00 00 00 FF  F1                        ..Ñ....ˇ Ò

00000000  01 02 00 00 00 20 79 D2                            ..... y“ 

00000000  01 02 04 09 00 00 00 F8  7E                        .......¯ ~


==================================================
±‡∫≈              : 13
–≠“È              : TCP
±æµÿµÿ÷∑          : 192.168.8.2
‘∂≥Ãµÿ÷∑          : 10.97.103.6
±æµÿ∂Àø⁄          : 9001
‘∂≥Ã∂Àø⁄          : 5001
±æµÿ÷˜ª˙          : 
‘∂≥Ã÷˜ª˙          : 
∑˛ŒÒ√˚≥∆          : 
 ˝æ›∞¸ ˝¡ø        : 54  {27 ; 27}
≤ª∫¨∑‚◊∞–≈œ¢µƒ ˝æ›¡ø: 594 ◊÷Ω⁄  {0 ; 594}
∞¸∫¨∑‚◊∞–≈œ¢µƒ◊‹ ˝æ›¡ø: 2,816 ◊÷Ω⁄  {1,080 ; 1,736}
 ˝æ›ÀŸ¬           : 0.0 KB/√Î
≤∂ªÒ ±º‰          : 2011-1-14 15:25:46:406
◊ÓΩ¸≤∂ªÒ∞¸µƒ ±º‰  : 2011-1-14 16:09:32:375
±æª˙ MAC µÿ÷∑     : 
‘∂∂À MAC µÿ÷∑     : 
±æª˙ IP À˘ Ùπ˙    : 
‘∂∂À IP À˘ Ùπ˙    : 
==================================================

00000000  7B 01 00 16 31 35 31 37  36 36 35 37 30 35 39 0A   {...1517 6657059. 
00000010  61 67 06 13 89 7B 7B 01  00 16 31 35 31 37 36 36   ag..â{{. ..151766 
00000020  35 37 30 35 39 0A 61 67  06 13 89 7B 7B 01 00 16   57059.ag ..â{{... 
00000030  31 35 31 37 36 36 35 37  30 35 39 0A 61 67 06 13   15176657 059.ag.. 
00000040  89 7B 7B 01 00 16 31 35  31 37 36 36 35 37 30 35   â{{...15 17665705 
00000050  39 0A 61 67 06 13 89 7B  7B 01 00 16 31 35 31 37   9.ag..â{ {...1517 
00000060  36 36 35 37 30 35 39 0A  61 67 06 13 89 7B 7B 01   6657059. ag..â{{. 
00000070  00 16 31 35 31 37 36 36  35 37 30 35 39 0A 61 67   ..151766 57059.ag 
00000080  06 13 89 7B 7B 01 00 16  31 35 31 37 36 36 35 37   ..â{{... 15176657 
00000090  30 35 39 0A 61 67 06 13  89 7B 7B 01 00 16 31 35   059.ag.. â{{...15 
000000A0  31 37 36 36 35 37 30 35  39 0A 61 67 06 13 89 7B   17665705 9.ag..â{ 
000000B0  7B 01 00 16 31 35 31 37  36 36 35 37 30 35 39 0A   {...1517 6657059. 
000000C0  61 67 06 13 89 7B 7B 01  00 16 31 35 31 37 36 36   ag..â{{. ..151766 
000000D0  35 37 30 35 39 0A 61 67  06 13 89 7B 7B 01 00 16   57059.ag ..â{{... 
000000E0  31 35 31 37 36 36 35 37  30 35 39 0A 61 67 06 13   15176657 059.ag.. 
000000F0  89 7B 7B 01 00 16 31 35  31 37 36 36 35 37 30 35   â{{...15 17665705 
00000100  39 0A 61 67 06 13 89 7B  7B 01 00 16 31 35 31 37   9.ag..â{ {...1517 
00000110  36 36 35 37 30 35 39 0A  61 67 06 13 89 7B 7B 01   6657059. ag..â{{. 
00000120  00 16 31 35 31 37 36 36  35 37 30 35 39 0A 61 67   ..151766 57059.ag 
00000130  06 13 89 7B 7B 01 00 16  31 35 31 37 36 36 35 37   ..â{{... 15176657 
00000140  30 35 39 0A 61 67 06 13  89 7B 7B 01 00 16 31 35   059.ag.. â{{...15 
00000150  31 37 36 36 35 37 30 35  39 0A 61 67 06 13 89 7B   17665705 9.ag..â{ 
00000160  7B 01 00 16 31 35 31 37  36 36 35 37 30 35 39 0A   {...1517 6657059. 
00000170  61 67 06 13 89 7B 7B 01  00 16 31 35 31 37 36 36   ag..â{{. ..151766 
00000180  35 37 30 35 39 0A 61 67  06 13 89 7B 7B 01 00 16   57059.ag ..â{{... 
00000190  31 35 31 37 36 36 35 37  30 35 39 0A 61 67 06 13   15176657 059.ag.. 
000001A0  89 7B 7B 01 00 16 31 35  31 37 36 36 35 37 30 35   â{{...15 17665705 
000001B0  39 0A 61 67 06 13 89 7B  7B 01 00 16 31 35 31 37   9.ag..â{ {...1517 
000001C0  36 36 35 37 30 35 39 0A  61 67 06 13 89 7B 7B 01   6657059. ag..â{{. 
000001D0  00 16 31 35 31 37 36 36  35 37 30 35 39 0A 61 67   ..151766 57059.ag 
000001E0  06 13 89 7B 7B 01 00 16  31 35 31 37 36 36 35 37   ..â{{... 15176657 
000001F0  30 35 39 0A 61 67 06 13  89 7B 7B 01 00 16 31 35   059.ag.. â{{...15 
00000200  31 37 36 36 35 37 30 35  39 0A 61 67 06 13 89 7B   17665705 9.ag..â{ 
00000210  7B 01 00 16 31 35 31 37  36 36 35 37 30 35 39 0A   {...1517 6657059. 
00000220  61 67 06 13 89 7B 7B 01  00 16 31 35 31 37 36 36   ag..â{{. ..151766 
00000230  35 37 30 35 39 0A 61 67  06 13 89 7B 7B 01 00 16   57059.ag ..â{{... 
00000240  31 35 31 37 36 36 35 37  30 35 39 0A 61 67 06 13   15176657 059.ag.. 
00000250  89 7B                                              â{


==================================================
±‡∫≈              : 5
–≠“È              : TCP
±æµÿµÿ÷∑          : 192.168.8.2
‘∂≥Ãµÿ÷∑          : 10.97.103.20
±æµÿ∂Àø⁄          : 9001
‘∂≥Ã∂Àø⁄          : 5001
±æµÿ÷˜ª˙          : 
‘∂≥Ã÷˜ª˙          : 
∑˛ŒÒ√˚≥∆          : 
 ˝æ›∞¸ ˝¡ø        : 192  {98 ; 94}
≤ª∫¨∑‚◊∞–≈œ¢µƒ ˝æ›¡ø: 2,883 ◊÷Ω⁄  {352 ; 2,531}
∞¸∫¨∑‚◊∞–≈œ¢µƒ◊‹ ˝æ›¡ø: 10,619 ◊÷Ω⁄  {4,276 ; 6,343}
 ˝æ›ÀŸ¬           : 0.0 KB/√Î
≤∂ªÒ ±º‰          : 2011-1-14 15:25:35:765
◊ÓΩ¸≤∂ªÒ∞¸µƒ ±º‰  : 2011-1-14 16:10:39:203
±æª˙ MAC µÿ÷∑     : 
‘∂∂À MAC µÿ÷∑     : 
±æª˙ IP À˘ Ùπ˙    : 
‘∂∂À IP À˘ Ùπ˙    : 
==================================================

00000000  01 04 00 00 00 32 71 DF                            .....2qﬂ 

00000000  01 04 64 07 DB 00 01 00  0E 00 0F 00 10 00 24 00   ..d.€... ......$. 
00000010  00 03 AD 02 9E 02 DA 02  27 02 95 02 09 01 F2 00   ..≠.û.⁄. '.ï...Ú. 
00000020  FA 03 DA 00 99 2D 89 44  33 00 0E 63 96 A7 98 42   ˙.⁄.ô-âD 3..cñßòB 
00000030  9F 00 02 D5 F1 BA 78 41  28 00 00 48 2B 00 00 00   ü..’Ò∫xA (..H+... 
00000040  00 D6 01 43 D0 00 08 C6  31 AB 3F 41 F4 00 01 15   .÷.C–..∆ 1´?AÙ... 
00000050  02 00 03 00 03 00 0F 00  00 00 00 00 00 00 00 00   ........ ........ 
00000060  00 02 17 00 00 00 00 E7  14                        .......Á .

00000000  01 02 00 00 00 20 79 D2                            ..... y“ 

00000000  01 02 04 0F 00 00 00 F8  F6                        .......¯ ˆ

00000000  02 04 00 00 00 32 71 EC                            .....2qÏ 

00000000  02 04 64 07 DB 00 01 00  0A 00 0B 00 1E 00 21 00   ..d.€... ......!. 
00000010  00 00 00 00 00 02 81 02  0B 00 00 00 00 01 CA 00   ......Å. ...... . 
00000020  E3 03 BB 00 01 00 00 00  00 00 00 01 C4 00 00 00   „.ª..... ....ƒ... 
00000030  00 00 00 00 00 C1 73 41  53 00 00 46 8E 00 00 00   .....¡sA S..Fé... 
00000040  00 1C 21 43 EE 00 09 AB  34 2B FE 41 B9 00 00 D0   ..!CÓ..´ 4+˛Aπ..– 
00000050  6B 00 02 00 02 00 0F 00  00 00 00 00 00 00 00 00   k....... ........ 
00000060  00 03 20 00 00 00 00 D5  20                        .. ....’  

00000000  02 02 00 00 00 20 79 E1                            ..... y· 

00000000  02 02 04 0F 00 00 00 CB  F6 7B 01 00 16 31 35 31   .......À ˆ{...151 
00000010  37 36 36 35 38 35 33 33  0A 61 67 14 13 89 7B 7B   76658533 .ag..â{{ 
00000020  01 00 16 31 35 31 37 36  36 35 38 35 33 33 0A 61   ...15176 658533.a 
00000030  67 14 13 89 7B                                     g..â{

00000000  01 04 00 00 00 32 71 DF                            .....2qﬂ 

00000000  01 04 64 07 DB 00 01 00  0E 00 0F 00 15 00 25 00   ..d.€... ......%. 
00000010  00 03 B0 02 9E 02 DA 02  26 02 93 02 06 01 EF 00   ..∞.û.⁄. &.ì...Ô. 
00000020  F7 03 DA 00 99 2D 89 44  33 00 0E 63 CE 2F 17 42   ˜.⁄.ô-âD 3..cŒ/.B 
00000030  A1 00 02 D6 4E 7C 37 41  33 00 00 48 2C 00 00 00   °..÷N|7A 3..H,... 
00000040  00 FD 0D 43 D1 00 08 C6  56 50 78 41 F7 00 01 15   .˝.C—..∆ VPxA˜... 
00000050  25 00 03 00 03 00 0F 00  00 00 00 00 00 00 00 00   %....... ........ 
00000060  00 02 17 00 00 00 00 66  9F                        .......f ü

00000000  01 02 00 00 00 20 79 D2                            ..... y“ 

00000000  01 02 04 0F 00 00 00 F8  F6                        .......¯ ˆ

00000000  02 04 00 00 00 32 71 EC                            .....2qÏ 

00000000  02 04 64 07 DB 00 01 00  0A 00 0B 00 23 00 20 00   ..d.€... ....#. . 
00000010  00 00 00 00 00 02 82 02  0B 00 00 00 00 01 C9 00   ......Ç. ......…. 
00000020  E3 03 BB 00 01 00 00 00  00 00 00 01 C4 00 00 00   „.ª..... ....ƒ... 
00000030  00 00 00 00 00 5E CF 41  54 00 00 46 8F 00 00 00   .....^œA T..Fè... 
00000040  00 57 23 43 EE 00 09 AB  59 C7 65 41 BA 00 00 D0   .W#CÓ..´ Y«eA∫..– 
00000050  86 00 02 00 02 00 0F 00  00 00 00 00 00 00 00 00   Ü....... ........ 
00000060  00 03 20 00 00 00 00 0B  CF                        .. ..... œ

00000000  02 02 00 00 00 20 79 E1                            ..... y· 

00000000  02 02 04 0F 00 00 00 CB  F6 7B 01 00 16 31 35 31   .......À ˆ{...151 
00000010  37 36 36 35 38 35 33 33  0A 61 67 14 13 89 7B 7B   76658533 .ag..â{{ 
00000020  01 00 16 31 35 31 37 36  36 35 38 35 33 33 0A 61   ...15176 658533.a 
00000030  67 14 13 89 7B                                     g..â{

00000000  01 04 00 00 00 32 71 DF                            .....2qﬂ 

00000000  01 04 64 07 DB 00 01 00  0E 00 0F 00 1A 00 25 00   ..d.€... ......%. 
00000010  00 03 AE 02 9E 02 DA 02  27 02 92 02 04 01 F5 00   ..Æ.û.⁄. '.í...ı. 
00000020  FB 03 DA 00 98 90 2E 44  32 00 0E 64 06 9D 76 42   ˚.⁄.òê.D 2..d.ùvB 
00000030  9F 00 02 D6 AB E2 66 41  26 00 00 48 2D 00 00 00   ü..÷´‚fA &..H-... 
00000040  00 C2 0A 43 D1 00 08 C6  7B BF C8 41 F5 00 01 15   .¬.C—..∆ {ø»Aı... 
00000050  48 00 03 00 03 00 0F 00  00 00 00 00 00 00 00 00   H....... ........ 
00000060  00 02 17 00 00 00 00 EF  F6                        .......Ô ˆ

00000000  01 02 00 00 00 20 79 D2                            ..... y“ 

00000000  01 02 04 0F 00 00 00 F8  F6                        .......¯ ˆ

00000000  02 04 00 00 00 32 71 EC                            .....2qÏ 

00000000  02 04 64 07 DB 00 01 00  0A 00 0B 00 28 00 1F 00   ..d.€... ....(... 
00000010  00 00 00 00 00 02 81 02  0B 00 00 00 00 01 C9 00   ......Å. ......…. 
00000020  E2 03 BB 00 01 00 00 00  00 00 00 01 C4 00 00 00   ‚.ª..... ....ƒ... 
00000030  00 00 00 00 00 99 85 41  55 00 00 46 91 00 00 00   .....ôÖA U..Fë... 
00000040  00 1C 21 43 EE 00 09 AB  7E 2B FE 41 B9 00 00 D0   ..!CÓ..´ ~+˛Aπ..– 
00000050  A1 00 02 00 02 00 0F 00  00 00 00 00 00 00 00 00   °....... ........ 
00000060  00 03 20 00 00 00 00 47  4C                        .. ....G L

00000000  02 02 00 00 00 20 79 E1                            ..... y· 

00000000  02 02 04 0F 00 00 00 CB  F6 7B 01 00 16 31 35 31   .......À ˆ{...151 
00000010  37 36 36 35 38 35 33 33  0A 61 67 14 13 89 7B 7B   76658533 .ag..â{{ 
00000020  01 00 16 31 35 31 37 36  36 35 38 35 33 33 0A 61   ...15176 658533.a 
00000030  67 14 13 89 7B                                     g..â{

00000000  01 04 00 00 00 32 71 DF                            .....2qﬂ 

00000000  01 04 64 07 DB 00 01 00  0E 00 0F 00 1F 00 25 00   ..d.€... ......%. 
00000010  00 03 B0 02 A0 02 DB 02  28 02 91 02 03 01 F4 00   ..∞.†.€. (.ë...Ù. 
00000020  FB 03 D9 00 99 DE DB 44  32 00 0E 64 3D 52 BE 42   ˚.Ÿ.ôﬁ€D 2..d=RæB 
00000030  A0 00 02 D7 08 A7 AF 41  25 00 00 48 2D 00 00 00   †..◊.ßØA %..H-... 
00000040  00 AE 13 43 D2 00 08 C6  A0 C3 0D 41 F6 00 01 15   .Æ.C“..∆ †√.Aˆ... 
00000050  6C 00 02 00 03 00 0F 00  00 00 00 00 00 00 00 00   l....... ........ 
00000060  00 02 17 00 00 00 00 FB  ED                        .......˚ Ì

00000000  01 02 00 00 00 20 79 D2                            ..... y“ 

00000000  01 02 04 0F 00 00 00 F8  F6                        .......¯ ˆ

00000000  02 04 00 00 00 32 71 EC                            .....2qÏ 

00000000  02 04 64 07 DB 00 01 00  0A 00 0B 00 2D 00 21 00   ..d.€... ....-.!. 
00000010  00 00 00 00 00 02 84 02  0A 00 00 00 00 01 CA 00   ......Ñ. ...... . 
00000020  E2 03 BB 00 01 00 00 00  00 00 00 01 C4 00 00 00   ‚.ª..... ....ƒ... 
00000030  00 00 00 00 00 5E CF 41  54 00 00 46 92 00 00 00   .....^œA T..Fí... 
00000040  00 57 23 43 EE 00 09 AB  A3 1C C9 41 BF 00 00 D0   .W#CÓ..´ £.…Aø..– 
00000050  BC 00 02 00 02 00 0F 00  00 00 00 00 00 00 00 00   º....... ........ 
00000060  00 03 20 00 00 00 00 E0  12                        .. ....‡ .

00000000  02 02 00 00 00 20 79 E1                            ..... y· 

00000000  02 02 04 0F 00 00 00 CB  F6 7B 01 00 16 31 35 31   .......À ˆ{...151 
00000010  37 36 36 35 38 35 33 33  0A 61 67 14 13 89 7B 7B   76658533 .ag..â{{ 
00000020  01 00 16 31 35 31 37 36  36 35 38 35 33 33 0A 61   ...15176 658533.a 
00000030  67 14 13 89 7B                                     g..â{

00000000  01 04 00 00 00 32 71 DF                            .....2qﬂ 

00000000  01 04 64 07 DB 00 01 00  0E 00 0F 00 24 00 2F 00   ..d.€... ....$./. 
00000010  00 03 B0 02 9F 02 DB 02  27 02 90 02 03 01 F3 00   ..∞.ü.€. '.ê...Û. 
00000020  FA 03 DA 00 98 05 9B 44  35 00 0E 64 77 4A 27 42   ˙.⁄.ò.õD 5..dwJ'B 
00000030  A2 00 02 D7 69 05 9B 41  35 00 00 48 2E 00 00 00   ¢..◊i.õA 5..H.... 
00000040  00 73 11 43 D2 00 08 C6  C7 CA 1C 41 F7 00 01 15   .s.C“..∆ « .A˜... 
00000050  91 00 03 00 02 00 0F 00  00 00 00 00 00 00 00 00   ë....... ........ 
00000060  00 02 17 00 00 00 00 06  7D                        ........ }

00000000  01 02 00 00 00 20 79 D2                            ..... y“ 

00000000  01 02 04 0F 00 00 00 F8  F6                        .......¯ ˆ

00000000  02 04 00 00 00 32 71 EC                            .....2qÏ 

00000000  02 04 64 07 DB 00 01 00  0A 00 0B 00 32 00 28 00   ..d.€... ....2.(. 
00000010  00 00 00 00 00 02 81 02  0B 00 00 00 00 01 C7 00   ......Å. ......«. 
00000020  DF 03 BB 00 01 00 00 00  00 00 00 01 C4 00 00 00   ﬂ.ª..... ....ƒ... 
00000030  00 00 00 00 00 99 85 41  55 00 00 46 93 00 00 00   .....ôÖA U..Fì... 
00000040  00 92 25 43 EE 00 09 AB  CA 87 C6 41 B9 00 00 D0   .í%CÓ..´  á∆Aπ..– 
00000050  D8 00 02 00 02 00 0F 00  00 00 00 00 00 00 00 00   ÿ....... ........ 
00000060  00 03 20 00 00 00 00 0E  2D                        .. ..... -

00000000  02 02 00 00 00 20 79 E1                            ..... y· 

00000000  02 02 04 0F 00 00 00 CB  F6 7B 01 00 16 31 35 31   .......À ˆ{...151 
00000010  37 36 36 35 38 35 33 33  0A 61 67 14 13 89 7B 7B   76658533 .ag..â{{ 
00000020  01 00 16 31 35 31 37 36  36 35 38 35 33 33 0A 61   ...15176 658533.a 
00000030  67 14 13 89 7B                                     g..â{

00000000  01 04 00 00 00 32 71 DF                            .....2qﬂ 

00000000  7B 01 00 16 31 35 31 37  36 36 35 38 35 33 33 0A   {...1517 6658533. 
00000010  61 67 14 13 89 7B                                  ag..â{

00000000  01 02 00 00 00 20 79 D2                            ..... y“ 

00000000  01 02 04 1F 00 00 00 FC  36                        .......¸ 6

00000000  02 04 00 00 00 32 71 EC                            .....2qÏ 

00000000  02 04 64 07 DB 00 01 00  0A 00 0B 00 3B 00 26 00   ..d.€... ....;.&. 
00000010  00 00 00 00 00 02 81 02  0A 00 00 00 00 01 CA 00   ......Å. ...... . 
00000020  DF 03 BB 00 01 00 00 00  00 00 00 01 C4 00 00 00   ﬂ.ª..... ....ƒ... 
00000030  00 00 00 00 00 4A D8 41  55 00 00 46 95 00 00 00   .....JÿA U..Fï... 
00000040  00 6A 37 43 F0 00 09 AC  0C 74 F3 41 BC 00 00 D1   .j7C..¨ .tÛAº..— 
00000050  08 00 02 00 02 00 0F 00  00 00 00 00 00 00 00 00   ........ ........ 
00000060  00 03 20 00 00 00 00 8F  13                        .. ....è .

00000000  02 02 00 00 00 20 79 E1                            ..... y· 

00000000  02 02 04 0F 00 00 00 CB  F6                        .......À ˆ

00000000  01 04 00 00 00 32 71 DF                            .....2qﬂ 

00000000  01 04 64 07 DB 00 01 00  0E 00 0F 00 2E 00 24 00   ..d.€... ......$. 
00000010  00 03 AE 02 9E 02 DA 02  27 02 8D 01 FC 01 FC 01   ..Æ.û.⁄. '.ç.¸.¸. 
00000020  04 03 DA 00 96 7C 37 44  33 00 0E 64 E4 70 74 42   ..⁄.ñ|7D 3..d‰ptB 
00000030  A0 00 02 D8 20 5C 72 41  5C 00 00 48 31 00 00 00   †..ÿ \rA \..H1... 
00000040  00 73 11 43 D2 00 08 C7  10 8F 2F 41 F6 00 01 15   .s.C“..« .è/Aˆ... 
00000050  D6 00 03 00 03 00 1F 00  00 00 00 00 00 00 00 00   ÷....... ........ 
00000060  00 02 17 00 00 00 00 71  5A 7B 01 00 16 31 35 31   .......q Z{...151 
00000070  37 36 36 35 38 35 33 33  0A 61 67 14 13 89 7B 7B   76658533 .ag..â{{ 
00000080  01 00 16 31 35 31 37 36  36 35 38 35 33 33 0A 61   ...15176 658533.a 
00000090  67 14 13 89 7B                                     g..â{

00000000  01 02 00 00 00 20 79 D2                            ..... y“ 

00000000  01 02 04 1F 00 00 00 FC  36                        .......¸ 6

00000000  02 04 00 00 00 32 71 EC                            .....2qÏ 

00000000  02 04 64 07 DB 00 01 00  0A 00 0C 00 04 00 25 00   ..d.€... ......%. 
00000010  00 00 00 00 00 02 7C 02  0A 00 00 00 00 01 E8 00   ......|. ......Ë. 
00000020  F5 03 BB 00 01 00 00 00  00 00 00 01 C4 00 00 00   ı.ª..... ....ƒ... 
00000030  00 00 00 00 00 12 7D 41  4C 00 00 46 96 00 00 00   ......}A L..Fñ... 
00000040  00 1A 5B 43 F4 00 09 AC  31 03 B5 41 B8 00 00 D1   ..[CÙ..¨ 1.µA∏..— 
00000050  22 00 02 00 02 00 0F 00  00 00 00 00 00 00 00 00   "....... ........ 
00000060  00 03 20 00 00 00 00 FF  B5                        .. ....ˇ µ

00000000  02 02 00 00 00 20 79 E1                            ..... y· 

00000000  02 02 04 0F 00 00 00 CB  F6                        .......À ˆ

00000000  01 04 00 00 00 32 71 DF                            .....2qﬂ 

00000000  01 04 64 07 DB 00 01 00  0E 00 0F 00 33 00 25 00   ..d.€... ....3.%. 
00000010  00 03 AE 02 9E 02 DC 02  27 02 8C 01 FA 01 F6 00   ..Æ.û.‹. '.å.˙.ˆ. 
00000020  FD 03 DA 00 92 90 2E 44  32 00 0E 65 1B 9D 76 42   ˝.⁄.íê.D 2..e.ùvB 
00000030  9F 00 02 D8 7D B5 BF 41  38 00 00 48 32 00 00 00   ü..ÿ}µøA 8..H2... 
00000040  00 87 08 43 D1 00 08 C7  35 ED B2 41 F7 00 01 15   .á.C—..« 5Ì≤A˜... 
00000050  FA 00 03 00 02 00 1F 00  00 00 00 00 00 00 00 00   ˙....... ........ 
00000060  00 02 17 00 00 00 00 80  0A 7B 01 00 16 31 35 31   .......Ä .{...151 
00000070  37 36 36 35 38 35 33 33  0A 61 67 14 13 89 7B 7B   76658533 .ag..â{{ 
00000080  01 00 16 31 35 31 37 36  36 35 38 35 33 33 0A 61   ...15176 658533.a 
00000090  67 14 13 89 7B                                     g..â{

00000000  01 02 00 00 00 20 79 D2                            ..... y“ 

00000000  01 02 04 1F 00 00 00 FC  36                        .......¸ 6

00000000  02 04 00 00 00 32 71 EC                            .....2qÏ 

00000000  02 04 64 07 DB 00 01 00  0A 00 0C 00 09 00 26 00   ..d.€... ......&. 
00000010  00 00 00 00 00 02 7C 02  0C 00 00 00 00 01 E9 00   ......|. ......È. 
00000020  F5 03 BA 00 01 00 00 00  00 00 00 01 C4 00 00 00   ı.∫..... ....ƒ... 
00000030  00 00 00 00 00 12 7D 41  4C 00 00 46 97 00 00 00   ......}A L..Fó... 
00000040  00 06 65 43 F5 00 09 AC  56 AA B9 41 B5 00 00 D1   ..eCı..¨ V™πAµ..— 
00000050  3D 00 02 00 02 00 0F 00  00 00 00 00 00 00 00 00   =....... ........ 
00000060  00 03 20 00 00 00 00 28  EC                        .. ....( Ï

00000000  02 02 00 00 00 20 79 E1                            ..... y· 

00000000  02 02 04 0F 00 00 00 CB  F6                        .......À ˆ

00000000  01 04 00 00 00 32 71 DF                            .....2qﬂ 

00000000  01 04 64 07 DB 00 01 00  0E 00 0F 00 38 00 24 00   ..d.€... ....8.$. 
00000010  00 03 AE 02 9C 02 DC 02  27 02 8A 01 F7 01 F6 00   ..Æ.ú.‹. '.ä.˜.ˆ. 
00000020  FD 03 D9 00 90 90 2E 44  32 00 0E 65 53 B5 AE 42   ˝.Ÿ.êê.D 2..eSµÆB 
00000030  A0 00 02 D8 DA 28 D0 41  43 00 00 48 33 00 00 00   †..ÿ⁄(–A C..H3... 
00000040  00 38 0F 43 D2 00 08 C7  5A BF 2B 41 F8 00 01 16   .8.C“..« Zø+A¯... 
00000050  1E 00 03 00 03 00 1F 00  00 00 00 00 00 00 00 00   ........ ........ 
00000060  00 02 17 00 00 00 00 8D  FE 7B 01 00 16 31 35 31   .......ç ˛{...151 
00000070  37 36 36 35 38 35 33 33  0A 61 67 14 13 89 7B 7B   76658533 .ag..â{{ 
00000080  01 00 16 31 35 31 37 36  36 35 38 35 33 33 0A 61   ...15176 658533.a 
00000090  67 14 13 89 7B                                     g..â{

00000000  01 02 00 00 00 20 79 D2                            ..... y“ 

00000000  01 02 04 1F 00 00 00 FC  36                        .......¸ 6

00000000  02 04 00 00 00 32 71 EC                            .....2qÏ 

00000000  02 04 64 07 DB 00 01 00  0A 00 0C 00 0E 00 28 00   ..d.€... ......(. 
00000010  00 00 00 00 00 02 7B 02  0B 00 00 00 00 01 E5 00   ......{. ......Â. 
00000020  F2 03 BB 00 01 00 00 00  00 00 00 01 C4 00 00 00   Ú.ª..... ....ƒ... 
00000030  00 00 00 00 00 AF D9 41  4C 00 00 46 98 00 00 00   .....ØŸA L..Fò... 
00000040  00 1A 5B 43 F4 00 09 AC  7B 8F 4E 41 B3 00 00 D1   ..[CÙ..¨ {èNA≥..— 
00000050  57 00 02 00 02 00 0F 00  00 00 00 00 00 00 00 00   W....... ........ 
00000060  00 03 20 00 00 00 00 6B  77                        .. ....k w

00000000  02 02 00 00 00 20 79 E1                            ..... y· 

00000000  02 02 04 0F 00 00 00 CB  F6                        .......À ˆ

00000000  01 04 00 00 00 32 71 DF                            .....2qﬂ 

00000000  01 04 64 07 DB 00 01 00  0E 00 10 00 01 00 24 00   ..d.€... ......$. 
00000010  00 03 AA 02 99 02 DB 02  27 02 87 01 F4 01 F3 00   ..™.ô.€. '.á.Ù.Û. 
00000020  F9 03 D9 00 8C 90 2E 44  32 00 0E 65 8A D0 5E 42   ˘.Ÿ.åê.D 2..eä–^B 
00000030  9F 00 02 D9 37 B6 ED 41  34 00 00 48 34 00 00 00   ü..Ÿ7∂ÌA 4..H4... 
00000040  00 87 08 43 D1 00 08 C7  7F B4 31 41 F6 00 01 16   .á.C—..« ¥1Aˆ... 
00000050  42 00 03 00 03 00 1F 00  00 00 00 00 00 00 00 00   B....... ........ 
00000060  00 01 F4 00 00 00 00 F3  83                        ..Ù....Û É


==================================================
±‡∫≈              : 6
–≠“È              : TCP
±æµÿµÿ÷∑          : 192.168.8.2
‘∂≥Ãµÿ÷∑          : 10.97.103.19
±æµÿ∂Àø⁄          : 9001
‘∂≥Ã∂Àø⁄          : 5001
±æµÿ÷˜ª˙          : 
‘∂≥Ã÷˜ª˙          : 
∑˛ŒÒ√˚≥∆          : 
 ˝æ›∞¸ ˝¡ø        : 200  {100 ; 100}
≤ª∫¨∑‚◊∞–≈œ¢µƒ ˝æ›¡ø: 3,133 ◊÷Ω⁄  {352 ; 2,781}
∞¸∫¨∑‚◊∞–≈œ¢µƒ◊‹ ˝æ›¡ø: 11,181 ◊÷Ω⁄  {4,352 ; 6,829}
 ˝æ›ÀŸ¬           : 0.0 KB/√Î
≤∂ªÒ ±º‰          : 2011-1-14 15:25:35:765
◊ÓΩ¸≤∂ªÒ∞¸µƒ ±º‰  : 2011-1-14 16:10:55:500
±æª˙ MAC µÿ÷∑     : 
‘∂∂À MAC µÿ÷∑     : 
±æª˙ IP À˘ Ùπ˙    : 
‘∂∂À IP À˘ Ùπ˙    : 
==================================================

00000000  01 04 00 00 00 32 71 DF                            .....2qﬂ 

00000000  01 04 64 07 DB 00 01 00  0E 00 0E 00 39 00 22 00   ..d.€... ....9.". 
00000010  11 03 C6 02 8E 02 B5 02  21 01 BE 01 73 01 AA 01   ..∆.é.µ. !.æ.s.™. 
00000020  4F 03 87 00 AF 8E 4F 43  97 00 08 A6 82 96 53 42   O.á.ØéOC ó..¶ÇñSB 
00000030  1B 00 09 5B B8 00 00 00  00 00 00 05 55 00 00 00   ...[∏... ....U... 
00000040  00 0B 36 43 A2 00 06 2C  A4 19 EE 41 9D 00 04 49   ..6C¢.., §.ÓAù..I 
00000050  CC 00 00 00 00 00 1F 00  00 00 00 00 00 00 00 00   Ã....... ........ 
00000060  00 03 84 00 00 00 00 64  3D                        ..Ñ....d =

00000000  01 02 00 00 00 20 79 D2                            ..... y“ 

00000000  01 02 04 1F 00 00 00 FC  36                        .......¸ 6

00000000  02 04 00 00 00 32 71 EC                            .....2qÏ 

00000000  02 04 64 07 DB 00 01 00  0E 00 0F 00 13 00 1E FC   ..d.€... .......¸ 
00000010  18 00 00 00 00 02 DE 02  11 00 00 00 00 01 C3 01   ......ﬁ. ......√. 
00000020  5D 03 BD 00 00 00 00 00  00 00 00 00 00 00 00 00   ].Ω..... ........ 
00000030  00 00 00 00 00 00 00 00  00 00 00 00 00 00 00 00   ........ ........ 
00000040  00 5C D7 43 98 00 06 5E  10 17 F6 41 CC 00 10 30   .\◊Cò..^ ..ˆAÃ..0 
00000050  37 00 01 00 01 00 0F 00  80 00 00 00 00 00 00 00   7....... Ä....... 
00000060  00 03 84 00 00 00 00 02  C3                        ..Ñ..... √

00000000  02 02 00 00 00 20 79 E1                            ..... y· 

00000000  02 02 04 0F 00 80 00 AA  36 7B 01 00 16 31 35 31   .....Ä.™ 6{...151 
00000010  37 36 36 35 38 37 36 37  0A 61 67 13 13 89 7B 7B   76658767 .ag..â{{ 
00000020  01 00 16 31 35 31 37 36  36 35 38 37 36 37 0A 61   ...15176 658767.a 
00000030  67 13 13 89 7B                                     g..â{

00000000  01 04 00 00 00 32 71 DF                            .....2qﬂ 

00000000  01 04 64 07 DB 00 01 00  0E 00 0F 00 02 00 21 00   ..d.€... ......!. 
00000010  13 03 C9 02 8F 02 B4 02  20 01 BB 01 72 01 A9 01   ..….è.¥.  .ª.r.©. 
00000020  4E 03 85 00 AF CF 6A 43  93 00 08 A6 94 8A 25 42   N.Ö.ØœjC ì..¶îä%B 
00000030  18 00 09 5B DB 00 00 00  00 00 00 05 55 00 00 00   ...[€... ....U... 
00000040  00 BC 3D 43 A2 00 06 2C  C0 D0 74 41 9D 00 04 49   .º=C¢.., ¿–tAù..I 
00000050  D2 00 00 00 00 00 1F 00  00 00 00 00 00 00 00 00   “....... ........ 
00000060  00 03 84 00 00 00 00 0C  87                        ..Ñ..... á

00000000  01 02 00 00 00 20 79 D2                            ..... y“ 

00000000  01 02 04 1F 00 00 00 FC  36                        .......¸ 6

00000000  02 04 00 00 00 32 71 EC                            .....2qÏ 

00000000  02 04 64 07 DB 00 01 00  0E 00 0F 00 18 00 1F FC   ..d.€... .......¸ 
00000010  18 00 00 00 00 02 DC 02  14 00 00 00 00 01 C0 01   ......‹. ......¿. 
00000020  5B 03 BC 00 00 00 00 00  00 00 00 00 00 00 00 00   [.º..... ........ 
00000030  00 00 00 00 00 00 00 00  00 00 00 00 00 00 00 00   ........ ........ 
00000040  00 E6 D3 43 97 00 06 5E  2C E7 08 41 C6 00 10 30   .Ê”Có..^ ,Á.A∆..0 
00000050  58 00 01 00 01 00 0F 00  80 00 00 00 00 00 00 00   X....... Ä....... 
00000060  00 03 84 00 00 00 00 72  4B                        ..Ñ....r K

00000000  02 02 00 00 00 20 79 E1                            ..... y· 

00000000  02 02 04 0F 00 80 00 AA  36 7B 01 00 16 31 35 31   .....Ä.™ 6{...151 
00000010  37 36 36 35 38 37 36 37  0A 61 67 13 13 89 7B 7B   76658767 .ag..â{{ 
00000020  01 00 16 31 35 31 37 36  36 35 38 37 36 37 0A 61   ...15176 658767.a 
00000030  67 13 13 89 7B                                     g..â{

00000000  01 04 00 00 00 32 71 DF                            .....2qﬂ 

00000000  01 04 64 07 DB 00 01 00  0E 00 0F 00 07 00 21 00   ..d.€... ......!. 
00000010  0C 03 C7 02 91 02 B4 02  1F 01 B7 01 6F 01 A9 01   ..«.ë.¥. ..∑.o.©. 
00000020  4E 03 85 00 AF 21 D5 43  98 00 08 A6 A7 33 9D 42   N.Ö.Ø!’C ò..¶ß3ùB 
00000030  1B 00 09 5B FE 00 00 00  00 00 00 05 55 00 00 00   ...[˛... ....U... 
00000040  00 46 38 43 A2 00 06 2C  DC 5F 9D 41 9E 00 04 49   .F8C¢.., ‹_ùAû..I 
00000050  D8 00 00 00 00 00 1F 00  00 00 00 00 00 00 00 00   ÿ....... ........ 
00000060  00 03 84 00 00 00 00 A9  9B                        ..Ñ....© õ

00000000  01 02 00 00 00 20 79 D2                            ..... y“ 

00000000  01 02 04 1F 00 00 00 FC  36                        .......¸ 6

00000000  02 04 00 00 00 32 71 EC                            .....2qÏ 

00000000  02 04 64 07 DB 00 01 00  0E 00 0F 00 1D 00 1E FC   ..d.€... .......¸ 
00000010  18 00 00 00 00 02 DE 02  14 00 00 00 00 01 AC 01   ......ﬁ. ......¨. 
00000020  4A 03 BE 00 00 00 00 00  00 00 00 00 00 00 00 00   J.æ..... ........ 
00000030  00 00 00 00 00 00 00 00  00 00 00 00 00 00 00 00   ........ ........ 
00000040  00 21 D5 43 98 00 06 5E  48 FC A6 41 C8 00 10 30   .!’Cò..^ H¸¶A»..0 
00000050  78 00 01 00 01 00 0F 00  80 00 00 00 00 00 00 00   x....... Ä....... 
00000060  00 03 84 00 00 00 00 57  1C                        ..Ñ....W .

00000000  02 02 00 00 00 20 79 E1                            ..... y· 

00000000  02 02 04 0F 00 80 00 AA  36 7B 01 00 16 31 35 31   .....Ä.™ 6{...151 
00000010  37 36 36 35 38 37 36 37  0A 61 67 13 13 89 7B 7B   76658767 .ag..â{{ 
00000020  01 00 16 31 35 31 37 36  36 35 38 37 36 37 0A 61   ...15176 658767.a 
00000030  67 13 13 89 7B                                     g..â{

00000000  01 04 00 00 00 32 71 DF                            .....2qﬂ 

00000000  01 04 64 07 DB 00 01 00  0E 00 0F 00 0C 00 22 00   ..d.€... ......". 
00000010  0D 03 C8 02 8D 02 B6 02  20 01 B8 01 6D 01 A8 01   ..».ç.∂.  .∏.m.®. 
00000020  4E 03 85 00 AE AC B3 43  94 00 08 A6 B9 63 23 42   N.Ö.Æ¨≥C î..¶πc#B 
00000030  1A 00 09 5C 20 00 00 00  00 00 00 05 55 00 00 00   ...\ ... ....U... 
00000040  00 D0 34 43 A1 00 06 2C  F8 D7 89 41 9E 00 04 49   .–4C°.., ¯◊âAû..I 
00000050  DE 00 00 00 00 00 1F 00  00 00 00 00 00 00 00 00   ﬁ....... ........ 
00000060  00 03 84 00 00 00 00 64  54                        ..Ñ....d T

00000000  01 02 00 00 00 20 79 D2                            ..... y“ 

00000000  01 02 04 1F 00 00 00 FC  36                        .......¸ 6

00000000  02 04 00 00 00 32 71 EC                            .....2qÏ 

00000000  02 04 64 07 DB 00 01 00  0E 00 0F 00 22 00 1F FC   ..d.€... ...."..¸ 
00000010  18 00 00 00 00 02 DC 02  13 00 00 00 00 01 C0 01   ......‹. ......¿. 
00000020  58 03 BD 00 00 00 00 00  00 00 00 00 00 00 00 00   X.Ω..... ........ 
00000030  00 00 00 00 00 00 00 00  00 00 00 00 00 00 00 00   ........ ........ 
00000040  00 E6 D3 43 97 00 06 5E  64 D5 55 41 C7 00 10 30   .Ê”Có..^ d’UA«..0 
00000050  99 00 01 00 01 00 0F 00  80 00 00 00 00 00 00 00   ô....... Ä....... 
00000060  00 03 84 00 00 00 00 09  CA                        ..Ñ.....  

00000000  02 02 00 00 00 20 79 E1                            ..... y· 

00000000  02 02 04 0F 00 80 00 AA  36 7B 01 00 16 31 35 31   .....Ä.™ 6{...151 
00000010  37 36 36 35 38 37 36 37  0A 61 67 13 13 89 7B 7B   76658767 .ag..â{{ 
00000020  01 00 16 31 35 31 37 36  36 35 38 37 36 37 0A 61   ...15176 658767.a 
00000030  67 13 13 89 7B                                     g..â{

00000000  01 04 00 00 00 32 71 DF                            .....2qﬂ 

00000000  01 04 64 07 DB 00 01 00  0E 00 0F 00 11 00 23 00   ..d.€... ......#. 
00000010  12 03 C7 02 8E 02 B2 02  20 01 B8 01 6C 01 AA 01   ..«.é.≤.  .∏.l.™. 
00000020  4E 03 84 00 AD B1 07 43  96 00 08 A6 CC 20 41 42   N.Ñ.≠±.C ñ..¶Ã AB 
00000030  1B 00 09 5C 43 00 00 00  00 00 00 05 55 00 00 00   ...\C... ....U... 
00000040  00 5A 2F 43 A1 00 06 2D  14 8E 61 41 9A 00 04 49   .Z/C°..- .éaAö..I 
00000050  E3 00 00 00 00 00 1F 00  00 00 00 00 00 00 00 00   „....... ........ 
00000060  00 03 84 00 00 00 00 7B  B8                        ..Ñ....{ ∏

00000000  01 02 00 00 00 20 79 D2                            ..... y“ 

00000000  01 02 04 1F 00 00 00 FC  36                        .......¸ 6

00000000  02 04 00 00 00 32 71 EC                            .....2qÏ 

00000000  02 04 64 07 DB 00 01 00  0E 00 0F 00 27 00 20 FC   ..d.€... ....'. ¸ 
00000010  18 00 00 00 00 02 DC 02  14 00 00 00 00 01 B0 01   ......‹. ......∞. 
00000020  50 03 BD 00 00 00 00 00  00 00 00 00 00 00 00 00   P.Ω..... ........ 
00000030  00 00 00 00 00 00 00 00  00 00 00 00 00 00 00 00   ........ ........ 
00000040  00 21 D5 43 98 00 06 5E  80 34 4C 41 C7 00 10 30   .!’Cò..^ Ä4LA«..0 
00000050  B9 00 01 00 01 00 0F 00  80 00 00 00 00 00 00 00   π....... Ä....... 
00000060  00 03 84 00 00 00 00 E3  D6                        ..Ñ....„ ÷

00000000  02 02 00 00 00 20 79 E1                            ..... y· 

00000000  02 02 04 0F 00 80 00 AA  36 7B 01 00 16 31 35 31   .....Ä.™ 6{...151 
00000010  37 36 36 35 38 37 36 37  0A 61 67 13 13 89 7B 7B   76658767 .ag..â{{ 
00000020  01 00 16 31 35 31 37 36  36 35 38 37 36 37 0A 61   ...15176 658767.a 
00000030  67 13 13 89 7B                                     g..â{

00000000  01 04 00 00 00 32 71 DF                            .....2qﬂ 

00000000  01 04 64 07 DB 00 01 00  0E 00 0F 00 16 00 21 00   ..d.€... ......!. 
00000010  08 03 CD 02 91 02 B8 02  1D 01 B6 01 6E 01 A9 01   ..Õ.ë.∏. ..∂.n.©. 
00000020  4F 03 84 00 AA B9 AE 43  9A 00 08 A6 DE E7 BF 42   O.Ñ.™πÆC ö..¶ﬁÁøB 
00000030  20 00 09 5C 66 00 00 00  00 00 00 05 55 00 00 00    ..\f... ....U... 
00000040  00 0B 36 43 A2 00 06 2D  2F 01 D0 41 A4 00 04 49   ..6C¢..- /.–A§..I 
00000050  E9 00 00 00 00 00 1F 00  00 00 00 00 00 00 00 00   È....... ........ 
00000060  00 03 84 00 00 00 00 84  A4                        ..Ñ....Ñ §

00000000  01 02 00 00 00 20 79 D2                            ..... y“ 

00000000  01 02 04 1F 00 00 00 FC  36                        .......¸ 6

00000000  02 04 00 00 00 32 71 EC                            .....2qÏ 

00000000  02 04 64 07 DB 00 01 00  0E 00 0F 00 2C 00 1F FC   ..d.€... ....,..¸ 
00000010  18 00 00 00 00 02 DC 02  13 00 00 00 00 01 B9 01   ......‹. ......π. 
00000020  53 03 BD 00 00 00 00 00  00 00 00 00 00 00 00 00   S.Ω..... ........ 
00000030  00 00 00 00 00 00 00 00  00 00 00 00 00 00 00 00   ........ ........ 
00000040  00 70 CE 43 97 00 06 5E  9B 3A 12 41 C7 00 10 30   .pŒCó..^ õ:.A«..0 
00000050  DA 00 01 00 01 00 0F 00  80 00 00 00 00 00 00 00   ⁄....... Ä....... 
00000060  00 03 84 00 00 00 00 94  09                        ..Ñ....î .

00000000  02 02 00 00 00 20 79 E1                            ..... y· 

00000000  02 02 04 0F 00 80 00 AA  36 7B 01 00 16 31 35 31   .....Ä.™ 6{...151 
00000010  37 36 36 35 38 37 36 37  0A 61 67 13 13 89 7B 7B   76658767 .ag..â{{ 
00000020  01 00 16 31 35 31 37 36  36 35 38 37 36 37 0A 61   ...15176 658767.a 
00000030  67 13 13 89 7B                                     g..â{

00000000  01 04 00 00 00 32 71 DF                            .....2qﬂ 

00000000  01 04 64 07 DB 00 01 00  0E 00 0F 00 1B 00 22 00   ..d.€... ......". 
00000010  12 03 CA 02 8E 02 B4 02  1E 01 B4 01 6A 01 AA 01   .. .é.¥. ..¥.j.™. 
00000020  4E 03 84 00 A8 19 2D 43  94 00 08 A6 F1 B6 5E 42   N.Ñ.®.-C î..¶Ò∂^B 
00000030  19 00 09 5C 89 00 00 00  00 00 00 05 55 00 00 00   ...\â... ....U... 
00000040  00 46 38 43 A2 00 06 2D  4B 61 53 41 9F 00 04 49   .F8C¢..- KaSAü..I 
00000050  EF 00 00 00 00 00 1F 00  00 00 00 00 00 00 00 00   Ô....... ........ 
00000060  00 03 84 00 00 00 00 91  E3                        ..Ñ....ë „

00000000  01 02 00 00 00 20 79 D2                            ..... y“ 

00000000  01 04 64 07 DB 00 01 00  0E 00 0F 00 1B 00 22 00   ..d.€... ......". 
00000010  12 03 CA 02 8E 02 B4 02  1E 01 B4 01 6A 01 AA 01   .. .é.¥. ..¥.j.™. 
00000020  4E 03 84 00 A8 19 2D 43  94 00 08 A6 F1 B6 5E 42   N.Ñ.®.-C î..¶Ò∂^B 
00000030  19 00 09 5C 89 00 00 00  00 00 00 05 55 00 00 00   ...\â... ....U... 
00000040  00 46 38 43 A2 00 06 2D  4B 61 53 41 9F 00 04 49   .F8C¢..- KaSAü..I 
00000050  EF 00 00 00 00 00 1F 00  00 00 00 00 00 00 00 00   Ô....... ........ 
00000060  00 03 84 00 00 00 00 91  E3                        ..Ñ....ë „

00000000  01 02 00 00 00 20 79 D2                            ..... y“ 

00000000  01 02 04 1F 00 00 00 FC  36                        .......¸ 6

00000000  02 04 00 00 00 32 71 EC                            .....2qÏ 

00000000  02 04 64 07 DB 00 01 00  0E 00 0F 00 31 00 25 FC   ..d.€... ....1.%¸ 
00000010  18 00 00 00 00 02 DE 02  14 00 00 00 00 01 BD 01   ......ﬁ. ......Ω. 
00000020  59 03 BD 00 00 00 00 00  00 00 00 00 00 00 00 00   Y.Ω..... ........ 
00000030  00 00 00 00 00 00 00 00  00 00 00 00 00 00 00 00   ........ ........ 
00000040  00 AB D0 43 97 00 06 5E  B8 60 B9 41 C8 00 10 30   .´–Có..^ ∏`πA»..0 
00000050  FB 00 01 00 01 00 0F 00  80 00 00 00 00 00 00 00   ˚....... Ä....... 
00000060  00 03 84 00 00 00 00 A0  77                        ..Ñ....† w

00000000  02 02 00 00 00 20 79 E1                            ..... y· 

00000000  02 02 04 0F 00 80 00 AA  36 7B 01 00 16 31 35 31   .....Ä.™ 6{...151 
00000010  37 36 36 35 38 37 36 37  0A 61 67 13 13 89 7B 7B   76658767 .ag..â{{ 
00000020  01 00 16 31 35 31 37 36  36 35 38 37 36 37 0A 61   ...15176 658767.a 
00000030  67 13 13 89 7B                                     g..â{

00000000  01 04 00 00 00 32 71 DF                            .....2qﬂ 

00000000  01 04 64 07 DB 00 01 00  0E 00 0F 00 20 00 22 00   ..d.€... .... .". 
00000010  0C 03 C7 02 90 02 B5 02  21 01 B3 01 6A 01 A8 01   ..«.ê.µ. !.≥.j.®. 
00000020  4F 03 86 00 A7 F6 76 43  94 00 08 A7 03 6D 7B 42   O.Ü.ßˆvC î..ß.m{B 
00000030  18 00 09 5C AB 00 00 00  00 00 00 05 55 00 00 00   ...\´... ....U... 
00000040  00 46 38 43 A2 00 06 2D  67 53 22 41 9D 00 04 49   .F8C¢..- gS"Aù..I 
00000050  F5 00 00 00 00 00 1F 00  00 00 00 00 00 00 00 00   ı....... ........ 
00000060  00 03 84 00 00 00 00 56  B6                        ..Ñ....V ∂

00000000  01 02 00 00 00 20 79 D2                            ..... y“ 

00000000  01 02 04 1F 00 00 00 FC  36                        .......¸ 6

00000000  02 04 00 00 00 32 71 EC                            .....2qÏ 

00000000  02 04 64 07 DB 00 01 00  0E 00 0F 00 36 00 26 FC   ..d.€... ....6.&¸ 
00000010  18 00 00 00 00 02 DE 02  14 00 00 00 00 01 C6 01   ......ﬁ. ......∆. 
00000020  65 03 BE 00 00 00 00 00  00 00 00 00 00 00 00 00   e.æ..... ........ 
00000030  00 00 00 00 00 00 00 00  00 00 00 00 00 00 00 00   ........ ........ 
00000040  00 21 D5 43 98 00 06 5E  D3 FC A6 41 C8 00 10 31   .!’Cò..^ ”¸¶A»..1 
00000050  1B 00 01 00 01 00 0F 00  80 00 00 00 00 00 00 00   ........ Ä....... 
00000060  00 03 84 00 00 00 00 0C  ED                        ..Ñ..... Ì

00000000  02 02 00 00 00 20 79 E1                            ..... y· 

00000000  02 02 04 0F 00 80 00 AA  36 7B 01 00 16 31 35 31   .....Ä.™ 6{...151 
00000010  37 36 36 35 38 37 36 37  0A 61 67 13 13 89 7B 7B   76658767 .ag..â{{ 
00000020  01 00 16 31 35 31 37 36  36 35 38 37 36 37 0A 61   ...15176 658767.a 
00000030  67 13 13 89 7B                                     g..â{

00000000  01 04 00 00 00 32 71 DF                            .....2qﬂ 

00000000  01 04 64 07 DB 00 01 00  0E 00 0F 00 25 00 22 00   ..d.€... ....%.". 
00000010  0D 03 CB 02 92 02 B6 02  1F 01 B1 01 68 01 AA 01   ..À.í.∂. ..±.h.™. 
00000020  50 03 84 00 A6 1D 81 43  96 00 08 A7 16 CD 09 42   P.Ñ.¶.ÅC ñ..ß.Õ.B 
00000030  1A 00 09 5C CE 00 00 00  00 00 00 05 55 00 00 00   ...\Œ... ....U... 
00000040  00 95 32 43 A1 00 06 2D  83 9E 19 41 9F 00 04 49   .ï2C°..- Éû.Aü..I 
00000050  FB 00 00 00 00 00 1F 00  00 00 00 00 00 00 00 00   ˚....... ........ 
00000060  00 03 84 00 00 00 00 A3  BC                        ..Ñ....£ º

00000000  01 02 00 00 00 20 79 D2                            ..... y“ 

00000000  01 02 04 1F 00 00 00 FC  36                        .......¸ 6

00000000  02 04 00 00 00 32 71 EC                            .....2qÏ 

00000000  02 04 64 07 DB 00 01 00  0E 00 0F 00 3B 00 25 FC   ..d.€... ....;.%¸ 
00000010  18 00 00 00 00 02 DE 02  14 00 00 00 00 01 C8 01   ......ﬁ. ......». 
00000020  62 03 BC 00 00 00 00 00  00 00 00 00 00 00 00 00   b.º..... ........ 
00000030  00 00 00 00 00 00 00 00  00 00 00 00 00 00 00 00   ........ ........ 
00000040  00 70 CE 43 97 00 06 5E  EF 12 C5 41 C8 00 10 31   .pŒCó..^ Ô.≈A»..1 
00000050  3C 00 00 00 01 00 0F 00  80 00 00 00 00 00 00 00   <....... Ä....... 
00000060  00 03 84 00 00 00 00 8E  3C                        ..Ñ....é <

00000000  02 02 00 00 00 20 79 E1                            ..... y· 

00000000  02 02 04 0F 00 80 00 AA  36 7B 01 00 16 31 35 31   .....Ä.™ 6{...151 
00000010  37 36 36 35 38 37 36 37  0A 61 67 13 13 89 7B 7B   76658767 .ag..â{{ 
00000020  01 00 16 31 35 31 37 36  36 35 38 37 36 37 0A 61   ...15176 658767.a 
00000030  67 13 13 89 7B                                     g..â{

00000000  01 04 00 00 00 32 71 DF                            .....2qﬂ 

00000000  01 04 64 07 DB 00 01 00  0E 00 0F 00 2A 00 22 00   ..d.€... ....*.". 
00000010  0A 03 C9 02 92 02 B6 02  1D 01 AE 01 63 01 AA 01   ..….í.∂. ..Æ.c.™. 
00000020  4F 03 84 00 A4 B5 5B 43  98 00 08 A7 28 2E 8A 42   O.Ñ.§µ[C ò..ß(.äB 
00000030  1C 00 09 5C F1 00 00 00  00 00 00 05 55 00 00 00   ...\Ò... ....U... 
00000040  00 95 32 43 A1 00 06 2D  9E 9F 2D 41 A1 00 04 4A   .ï2C°..- ûü-A°..J 
00000050  00 00 00 00 00 00 1F 00  00 00 00 00 00 00 00 00   ........ ........ 
00000060  00 03 84 00 00 00 00 C3  2E                        ..Ñ....√ .

00000000  01 02 00 00 00 20 79 D2                            ..... y“ 

00000000  01 02 04 1F 00 00 00 FC  36                        .......¸ 6

00000000  02 04 00 00 00 32 71 EC                            .....2qÏ 

00000000  02 04 64 07 DB 00 01 00  0E 00 10 00 04 00 26 FC   ..d.€... ......&¸ 
00000010  18 00 00 00 00 02 DF 02  14 00 00 00 00 01 C4 01   ......ﬂ. ......ƒ. 
00000020  62 03 BE 00 00 00 00 00  00 00 00 00 00 00 00 00   b.æ..... ........ 
00000030  00 00 00 00 00 00 00 00  00 00 00 00 00 00 00 00   ........ ........ 
00000040  00 E6 D3 43 97 00 06 5F  0B 92 82 41 C9 00 10 31   .Ê”Có.._ .íÇA…..1 
00000050  5C 00 01 00 00 00 0F 00  80 00 00 00 00 00 00 00   \....... Ä....... 
00000060  00 03 84 00 00 00 00 33  81                        ..Ñ....3 Å

00000000  02 02 00 00 00 20 79 E1                            ..... y· 

00000000  02 02 04 0F 00 80 00 AA  36                        .....Ä.™ 6


==================================================
±‡∫≈              : 4
–≠“È              : TCP
±æµÿµÿ÷∑          : 192.168.8.2
‘∂≥Ãµÿ÷∑          : 10.97.103.18
±æµÿ∂Àø⁄          : 9001
‘∂≥Ã∂Àø⁄          : 5001
±æµÿ÷˜ª˙          : 
‘∂≥Ã÷˜ª˙          : 
∑˛ŒÒ√˚≥∆          : 
 ˝æ›∞¸ ˝¡ø        : 176  {88 ; 88}
≤ª∫¨∑‚◊∞–≈œ¢µƒ ˝æ›¡ø: 2,631 ◊÷Ω⁄  {288 ; 2,343}
∞¸∫¨∑‚◊∞–≈œ¢µƒ◊‹ ˝æ›¡ø: 9,719 ◊÷Ω⁄  {3,808 ; 5,911}
 ˝æ›ÀŸ¬           : 0.0 KB/√Î
≤∂ªÒ ±º‰          : 2011-1-14 15:25:33:828
◊ÓΩ¸≤∂ªÒ∞¸µƒ ±º‰  : 2011-1-14 16:11:02:390
±æª˙ MAC µÿ÷∑     : 
‘∂∂À MAC µÿ÷∑     : 
±æª˙ IP À˘ Ùπ˙    : 
‘∂∂À IP À˘ Ùπ˙    : 
==================================================

00000000  01 04 00 00 00 32 71 DF                            .....2qﬂ 

00000000  01 04 64 07 DB 00 01 00  0E 00 0F 00 08 00 15 00   ..d.€... ........ 
00000010  00 03 A4 02 98 02 7F 02  10 02 34 01 C1 01 8D 01   ..§.ò.. ..4.¡.ç. 
00000020  62 03 CE 00 B4 3B FE 44  02 00 0C 61 86 55 9C 42   b.Œ.¥;˛D ...aÜUúB 
00000030  66 00 15 3C 5B 00 00 00  00 00 00 0F 26 00 00 00   f..<[... ....&... 
00000040  00 59 01 43 25 00 03 6B  D6 A0 24 40 F1 00 0B D0   .Y.C%..k ÷†$@Ò..– 
00000050  3A 00 02 00 02 00 1B 00  00 00 00 00 00 00 00 00   :....... ........ 
00000060  00 03 20 00 00 00 00 E0  9F                        .. ....‡ ü

00000000  01 02 00 00 00 20 79 D2                            ..... y“ 

00000000  01 02 04 1B 00 00 00 FD  06                        .......˝ .

00000000  02 04 00 00 00 32 71 EC                            .....2qÏ 

00000000  02 04 64 07 DB 00 01 00  0E 00 0F 00 0B 00 1B 00   ..d.€... ........ 
00000010  00 00 04 00 00 02 86 02  3B 00 00 00 00 02 0B 01   ......Ü. ;....... 
00000020  3F 00 B8 00 01 00 00 00  00 00 00 00 00 00 00 00   ?.∏..... ........ 
00000030  00 00 00 00 00 00 00 00  00 00 00 13 DC 00 00 00   ........ ....‹... 
00000040  00 C6 77 43 C2 00 07 4A  71 2F F3 41 41 00 1D D9   .∆wC¬..J q/ÛAA..Ÿ 
00000050  AE 00 01 00 01 00 13 00  80 00 00 00 00 00 00 00   Æ....... Ä....... 
00000060  00 03 84 00 00 00 00 23  2B                        ..Ñ....# +

00000000  02 02 00 00 00 20 79 E1                            ..... y· 

00000000  02 02 04 13 00 80 00 AD  A6                        .....Ä.≠ ¶

00000000  03 04 00 00 00 32 70 3D                            .....2p= 

00000000  03 04 64 07 DB 00 01 00  0E 00 0F 00 01 00 37 FC   ..d.€... ......7¸ 
00000010  18 FC 18 FC 18 02 D4 02  5E 00 00 00 00 02 05 00   .¸.¸..‘. ^....... 
00000020  C0 03 5F 00 00 00 00 00  00 00 00 01 F6 00 00 00   ¿._..... ....ˆ... 
00000030  00 00 00 00 00 3B B3 41  03 00 00 2C 0C 00 00 00   .....;≥A ...,.... 
00000040  00 DE DB 43 B2 00 05 A2  6C FA CB 41 89 00 09 5A   .ﬁ€C≤..¢ l˙ÀAâ..Z 
00000050  4F 00 02 00 02 00 17 00  90 00 00 00 00 00 00 00   O....... ê....... 
00000060  00 02 BC 00 00 00 00 5B  4C                        ..º....[ L

00000000  03 02 00 00 00 20 78 30                            ..... x0 

00000000  03 02 04 17 00 90 00 B1  96 7B 01 00 16 31 35 31   .....ê.± ñ{...151 
00000010  37 36 36 35 38 36 31 37  0A 61 67 12 13 89 7B 7B   76658617 .ag..â{{ 
00000020  01 00 16 31 35 31 37 36  36 35 38 36 31 37 0A 61   ...15176 658617.a 
00000030  67 12 13 89 7B                                     g..â{

00000000  01 04 00 00 00 32 71 DF                            .....2qﬂ 

00000000  01 04 64 07 DB 00 01 00  0E 00 0F 00 0D 00 16 00   ..d.€... ........ 
00000010  00 03 A4 02 98 02 7F 02  0F 02 33 01 BD 01 8F 01   ..§.ò.. ..3.Ω.è. 
00000020  63 03 CD 00 B5 5E B6 44  01 00 0C 61 AB 16 D0 42   c.Õ.µ^∂D ...a´.–B 
00000030  64 00 15 3C 9C 00 00 00  00 00 00 0F 26 00 00 00   d..<ú... ....&... 
00000040  00 BB A6 43 24 00 03 6B  E4 C9 0F 40 F2 00 0B D0   .ª¶C$..k ‰….@Ú..– 
00000050  4A 00 02 00 02 00 1B 00  00 00 00 00 00 00 00 00   J....... ........ 
00000060  00 03 20 00 00 00 00 DC  E1                        .. ....‹ ·

00000000  01 02 00 00 00 20 79 D2                            ..... y“ 

00000000  01 02 04 1B 00 00 00 FD  06                        .......˝ .

00000000  02 04 00 00 00 32 71 EC                            .....2qÏ 

00000000  02 04 64 07 DB 00 01 00  0E 00 0F 00 10 00 1B 00   ..d.€... ........ 
00000010  00 00 03 00 00 02 87 02  3E 00 00 00 00 02 0A 01   ......á. >....... 
00000020  42 00 B8 00 01 00 00 00  00 00 00 00 00 00 00 00   B.∏..... ........ 
00000030  00 00 00 00 00 51 ED 3F  BD 00 00 13 DC 00 00 00   .....QÌ? Ω...‹... 
00000040  00 50 73 43 C2 00 07 4A  8C E3 66 41 3B 00 1D D9   .PsC¬..J å„fA;..Ÿ 
00000050  AE 00 01 00 01 00 13 00  80 00 00 00 00 00 00 00   Æ....... Ä....... 
00000060  00 03 84 00 00 00 00 93  CA                        ..Ñ....ì  

00000000  02 02 00 00 00 20 79 E1                            ..... y· 

00000000  02 02 04 13 00 80 00 AD  A6                        .....Ä.≠ ¶

00000000  03 04 00 00 00 32 70 3D                            .....2p= 

00000000  03 04 64 07 DB 00 01 00  0E 00 0F 00 06 00 37 FC   ..d.€... ......7¸ 
00000010  18 FC 18 FC 18 02 D3 02  5E 00 00 00 00 02 05 00   .¸.¸..”. ^....... 
00000020  C1 03 5F 00 00 00 00 00  00 00 00 01 F6 00 00 00   ¡._..... ....ˆ... 
00000030  00 00 00 00 00 B2 4E 41  01 00 00 2C 0C 00 00 00   .....≤NA ...,.... 
00000040  00 68 D7 43 B2 00 05 A2  88 98 03 41 88 00 09 5A   .h◊C≤..¢ àò.Aà..Z 
00000050  60 00 02 00 02 00 17 00  90 00 00 00 00 00 00 00   `....... ê....... 
00000060  00 02 BC 00 00 00 00 45  53                        ..º....E S

00000000  03 02 00 00 00 20 78 30                            ..... x0 

00000000  03 02 04 17 00 90 00 B1  96 7B 01 00 16 31 35 31   .....ê.± ñ{...151 
00000010  37 36 36 35 38 36 31 37  0A 61 67 12 13 89 7B 7B   76658617 .ag..â{{ 
00000020  01 00 16 31 35 31 37 36  36 35 38 36 31 37 0A 61   ...15176 658617.a 
00000030  67 12 13 89 7B                                     g..â{

00000000  01 04 00 00 00 32 71 DF                            .....2qﬂ 

00000000  01 04 64 07 DB 00 01 00  0E 00 0F 00 12 00 17 00   ..d.€... ........ 
00000010  00 03 A5 02 99 02 7E 02  10 02 30 01 BB 01 8F 01   ..•.ô.~. ..0.ª.è. 
00000020  65 03 CE 00 B5 F2 3B 44  01 00 0C 61 D0 F3 0D 42   e.Œ.µÚ;D ...a–Û.B 
00000030  64 00 15 3C DD 00 00 00  00 00 00 0F 26 00 00 00   d..<›... ....&... 
00000040  00 0A 54 43 25 00 03 6B  F2 30 76 40 EF 00 0B D0   ..TC%..k Ú0v@Ô..– 
00000050  5A 00 02 00 02 00 1B 00  00 00 00 00 00 00 00 00   Z....... ........ 
00000060  00 03 20 00 00 00 00 CC  E0                        .. ....Ã ‡

00000000  01 02 00 00 00 20 79 D2                            ..... y“ 

00000000  01 02 04 1B 00 00 00 FD  06                        .......˝ .

00000000  02 04 00 00 00 32 71 EC                            .....2qÏ 

00000000  02 04 64 07 DB 00 01 00  0E 00 0F 00 15 00 1B 00   ..d.€... ........ 
00000010  00 00 03 00 00 02 85 02  3E 00 00 00 00 02 0C 01   ......Ö. >....... 
00000020  43 00 B8 00 01 00 00 00  00 00 00 00 00 00 00 00   C.∏..... ........ 
00000030  00 00 00 00 00 25 46 40  CF 00 00 13 DD 00 00 00   .....%F@ œ...›... 
00000040  00 01 7A 43 C3 00 07 4A  A8 DD 9C 41 37 00 1D D9   ..zC√..J ®›úA7..Ÿ 
00000050  AE 00 01 00 01 00 13 00  80 00 00 00 00 00 00 00   Æ....... Ä....... 
00000060  00 03 84 00 00 00 00 06  F0                        ..Ñ..... 

00000000  02 02 00 00 00 20 79 E1                            ..... y· 

00000000  02 02 04 13 00 80 00 AD  A6                        .....Ä.≠ ¶

00000000  03 04 00 00 00 32 70 3D                            .....2p= 

00000000  03 04 64 07 DB 00 01 00  0E 00 0F 00 0B 00 37 FC   ..d.€... ......7¸ 
00000010  18 FC 18 FC 18 02 D4 02  5F 00 00 00 00 02 01 00   .¸.¸..‘. _....... 
00000020  BC 03 5F 00 00 00 00 00  00 00 00 01 F6 00 00 00   º._..... ....ˆ... 
00000030  00 00 00 00 00 97 42 41  1A 00 00 2C 0D 00 00 00   .....óBA ...,.... 
00000040  00 CA E4 43 B3 00 05 A2  A3 97 E8 41 89 00 09 5A   . ‰C≥..¢ £óËAâ..Z 
00000050  70 00 01 00 02 00 17 00  90 00 00 00 00 00 00 00   p....... ê....... 
00000060  00 02 BC 00 00 00 00 68  1B                        ..º....h .

00000000  03 02 00 00 00 20 78 30                            ..... x0 

00000000  03 02 04 17 00 90 00 B1  96 7B 01 00 16 31 35 31   .....ê.± ñ{...151 
00000010  37 36 36 35 38 36 31 37  0A 61 67 12 13 89 7B 7B   76658617 .ag..â{{ 
00000020  01 00 16 31 35 31 37 36  36 35 38 36 31 37 0A 61   ...15176 658617.a 
00000030  67 12 13 89 7B                                     g..â{

00000000  01 04 00 00 00 32 71 DF                            .....2qﬂ 

00000000  01 04 64 07 DB 00 01 00  0E 00 0F 00 17 00 16 00   ..d.€... ........ 
00000010  00 03 A3 02 99 02 7E 02  10 02 30 01 B9 01 8F 01   ..£.ô.~. ..0.π.è. 
00000020  62 03 CE 00 B5 F2 3B 44  01 00 0C 61 F5 96 82 42   b.Œ.µÚ;D ...aıñÇB 
00000030  63 00 15 3D 1E 00 00 00  00 00 00 0F 26 00 00 00   c..=.... ....&... 
00000040  00 F6 5D 43 25 00 03 6C  00 86 8A 40 F0 00 0B D0   .ˆ]C%..l .Üä@..– 
00000050  6B 00 02 00 02 00 1B 00  00 00 00 00 00 00 00 00   k....... ........ 
00000060  00 03 20 00 00 00 00 77  15                        .. ....w .

00000000  01 02 00 00 00 20 79 D2                            ..... y“ 

00000000  01 02 04 1B 00 00 00 FD  06                        .......˝ .

00000000  02 04 00 00 00 32 71 EC                            .....2qÏ 

00000000  02 04 64 07 DB 00 01 00  0E 00 0F 00 1A 00 1B 00   ..d.€... ........ 
00000010  00 00 03 00 00 02 84 02  3B 00 00 00 00 02 0D 01   ......Ñ. ;....... 
00000020  42 00 B8 00 01 00 00 00  00 00 00 00 00 00 00 00   B.∏..... ........ 
00000030  00 00 00 00 00 09 0C 3F  EC 00 00 13 DD 00 00 00   .......? Ï...›... 
00000040  00 01 7A 43 C3 00 07 4A  C4 61 00 41 3A 00 1D D9   ..zC√..J ƒa.A:..Ÿ 
00000050  AE 00 01 00 01 00 13 00  80 00 00 00 00 00 00 00   Æ....... Ä....... 
00000060  00 03 84 00 00 00 00 CC  E6                        ..Ñ....Ã Ê

00000000  02 02 00 00 00 20 79 E1                            ..... y· 

00000000  02 02 04 13 00 80 00 AD  A6                        .....Ä.≠ ¶

00000000  03 04 00 00 00 32 70 3D                            .....2p= 

00000000  03 04 64 07 DB 00 01 00  0E 00 0F 00 10 00 38 FC   ..d.€... ......8¸ 
00000010  18 FC 18 FC 18 02 D2 02  5F 00 00 00 00 01 F1 00   .¸.¸..“. _.....Ò. 
00000020  A9 03 5F 00 00 00 00 00  00 00 00 01 F6 00 00 00   ©._..... ....ˆ... 
00000030  00 00 00 00 00 4D 4D 40  8A 00 00 2C 0E 00 00 00   .....MM@ ä..,.... 
00000040  00 DE DB 43 B2 00 05 A2  BF D2 7E 41 86 00 09 5A   .ﬁ€C≤..¢ ø“~AÜ..Z 
00000050  80 00 02 00 02 00 07 00  90 00 00 00 00 00 00 00   Ä....... ê....... 
00000060  00 02 BC 00 00 00 00 46  DF                        ..º....F ﬂ

00000000  03 02 00 00 00 20 78 30                            ..... x0 

00000000  03 02 04 07 00 90 00 B5  56 7B 01 00 16 31 35 31   .....ê.µ V{...151 
00000010  37 36 36 35 38 36 31 37  0A 61 67 12 13 89 7B 7B   76658617 .ag..â{{ 
00000020  01 00 16 31 35 31 37 36  36 35 38 36 31 37 0A 61   ...15176 658617.a 
00000030  67 12 13 89 7B                                     g..â{

00000000  01 04 00 00 00 32 71 DF                            .....2qﬂ 

00000000  01 04 64 07 DB 00 01 00  0E 00 0F 00 1C 00 16 00   ..d.€... ........ 
00000010  00 03 A7 02 99 02 7F 02  0F 02 31 01 B9 01 8F 01   ..ß.ô.. ..1.π.è. 
00000020  64 03 CE 00 B5 CF 84 44  02 00 0C 62 1A EB D2 42   d.Œ.µœÑD ...b.Î“B 
00000030  67 00 15 3D 5F 00 00 00  00 00 00 0F 26 00 00 00   g..=_... ....&... 
00000040  00 A7 AF 43 25 00 03 6C  0E 24 ED 40 F4 00 0B D0   .ßØC%..l .$Ì@Ù..– 
00000050  7B 00 02 00 02 00 1B 00  00 00 00 00 00 00 00 00   {....... ........ 
00000060  00 03 20 00 00 00 00 5A  EA                        .. ....Z Í

00000000  01 02 00 00 00 20 79 D2                            ..... y“ 

00000000  01 02 04 1B 00 00 00 FD  06                        .......˝ .

00000000  02 04 00 00 00 32 71 EC                            .....2qÏ 

00000000  02 04 64 07 DB 00 01 00  0E 00 0F 00 1F 00 1B 00   ..d.€... ........ 
00000010  00 00 03 00 00 02 85 02  3D 00 00 00 00 02 0B 01   ......Ö. =....... 
00000020  43 00 B8 00 01 00 00 00  00 00 00 00 00 00 00 00   C.∏..... ........ 
00000030  00 00 00 00 00 6E 0D 40  63 00 00 13 DD 00 00 00   .....n.@ c...›... 
00000040  00 8B 75 43 C2 00 07 4A  E0 D3 8B 41 39 00 1D D9   .ãuC¬..J ‡”ãA9..Ÿ 
00000050  AE 00 01 00 01 00 13 00  80 00 00 00 00 00 00 00   Æ....... Ä....... 
00000060  00 03 84 00 00 00 00 6B  CA                        ..Ñ....k  

00000000  02 02 00 00 00 20 79 E1                            ..... y· 

00000000  02 02 04 13 00 80 00 AD  A6                        .....Ä.≠ ¶

00000000  03 04 00 00 00 32 70 3D                            .....2p= 

00000000  03 04 64 07 DB 00 01 00  0E 00 0F 00 15 00 38 FC   ..d.€... ......8¸ 
00000010  18 FC 18 FC 18 02 D6 02  60 00 00 00 00 02 37 00   .¸.¸..÷. `.....7. 
00000020  F0 03 5F 00 00 00 00 00  00 00 00 01 F6 00 00 00   ._..... ....ˆ... 
00000030  00 00 00 00 00 AF F2 41  09 00 00 2C 0E 00 00 00   .....ØÚA ...,.... 
00000040  00 DE DB 43 B2 00 05 A2  DB DB 82 41 89 00 09 5A   .ﬁ€C≤..¢ €€ÇAâ..Z 
00000050  90 00 02 00 02 00 0F 00  90 00 00 00 00 00 00 00   ê....... ê....... 
00000060  00 02 BC 00 00 00 00 FD  11                        ..º....˝ .

00000000  03 02 00 00 00 20 78 30                            ..... x0 

00000000  03 02 04 0F 00 90 00 B7  36 7B 01 00 16 31 35 31   .....ê.∑ 6{...151 
00000010  37 36 36 35 38 36 31 37  0A 61 67 12 13 89 7B 7B   76658617 .ag..â{{ 
00000020  01 00 16 31 35 31 37 36  36 35 38 36 31 37 0A 61   ...15176 658617.a 
00000030  67 12 13 89 7B                                     g..â{

00000000  01 04 00 00 00 32 71 DF                            .....2qﬂ 

00000000  7B 01 00 16 31 35 31 37  36 36 35 38 36 31 37 0A   {...1517 6658617. 
00000010  61 67 12 13 89 7B 01 04  64 07 DB 00 01 00 0E 00   ag..â{.. d.€..... 
00000020  0F 00 21 00 2D 00 00 03  A6 02 99 02 7F 02 11 02   ..!.-... ¶.ô.... 
00000030  2F 01 B8 01 8F 01 61 03  CE 00 B3 AC CC 44 03 00   /.∏.è.a. Œ.≥¨ÃD.. 
00000040  0C 62 42 B9 71 42 68 00  15 3D A5 00 00 00 00 00   .bBπqBh. .=•..... 
00000050  00 0F 26 00 00 00 00 59  01 43 25 00 03 6C 1D 8F   ..&....Y .C%..l.è 
00000060  74 40 EF 00 0B D0 8C 00  02 00 02 00 1B 00 00 00   t@Ô..–å. ........ 
00000070  00 00 00 00 00 00 00 03  20 00 00 00 00 F6 BC 7B   ........  ....ˆº{ 
00000080  01 00 16 31 35 31 37 36  36 35 38 36 31 37 0A 61   ...15176 658617.a 
00000090  67 12 13 89 7B 7B 01 00  16 31 35 31 37 36 36 35   g..â{{.. .1517665 
000000A0  38 36 31 37 0A 61 67 12  13 89 7B 7B 01 00 16 31   8617.ag. .â{{...1 
000000B0  35 31 37 36 36 35 38 36  31 37 0A 61 67 12 13 89   51766586 17.ag..â 
000000C0  7B 7B 01 00 16 31 35 31  37 36 36 35 38 36 31 37   {{...151 76658617 
000000D0  0A 61 67 12 13 89 7B 7B  01 00 16 31 35 31 37 36   .ag..â{{ ...15176 
000000E0  36 35 38 36 31 37 0A 61  67 12 13 89 7B 7B 01 00   658617.a g..â{{.. 
000000F0  16 31 35 31 37 36 36 35  38 36 31 37 0A 61 67 12   .1517665 8617.ag. 
00000100  13 89 7B 7B 01 00 16 31  35 31 37 36 36 35 38 36   .â{{...1 51766586 
00000110  31 37 0A 61 67 12 13 89  7B 7B 01 00 16 31 35 31   17.ag..â {{...151 
00000120  37 36 36 35 38 36 31 37  0A 61 67 12 13 89 7B 7B   76658617 .ag..â{{ 
00000130  01 00 16 31 35 31 37 36  36 35 38 36 31 37 0A 61   ...15176 658617.a 
00000140  67 12 13 89 7B 7B 01 00  16 31 35 31 37 36 36 35   g..â{{.. .1517665 
00000150  38 36 31 37 0A 61 67 12  13 89 7B 7B 01 00 16 31   8617.ag. .â{{...1 
00000160  35 31 37 36 36 35 38 36  31 37 0A 61 67 12 13 89   51766586 17.ag..â 
00000170  7B 7B 01 00 16 31 35 31  37 36 36 35 38 36 31 37   {{...151 76658617 
00000180  0A 61 67 12 13 89 7B                               .ag..â{


==================================================
±‡∫≈              : 1
–≠“È              : TCP
±æµÿµÿ÷∑          : 192.168.8.2
‘∂≥Ãµÿ÷∑          : 10.97.103.16
±æµÿ∂Àø⁄          : 9001
‘∂≥Ã∂Àø⁄          : 5001
±æµÿ÷˜ª˙          : 
‘∂≥Ã÷˜ª˙          : 
∑˛ŒÒ√˚≥∆          : 
 ˝æ›∞¸ ˝¡ø        : 193  {93 ; 100}
≤ª∫¨∑‚◊∞–≈œ¢µƒ ˝æ›¡ø: 1,583 ◊÷Ω⁄  {296 ; 1,287}
∞¸∫¨∑‚◊∞–≈œ¢µƒ◊‹ ˝æ›¡ø: 9,509 ◊÷Ω⁄  {4,056 ; 5,453}
 ˝æ›ÀŸ¬           : 0.0 KB/√Î
≤∂ªÒ ±º‰          : 2011-1-14 15:25:10:031
◊ÓΩ¸≤∂ªÒ∞¸µƒ ±º‰  : 2011-1-14 16:10:56:765
±æª˙ MAC µÿ÷∑     : 
‘∂∂À MAC µÿ÷∑     : 
±æª˙ IP À˘ Ùπ˙    : 
‘∂∂À IP À˘ Ùπ˙    : 
==================================================

00000000  7B 01 00 16 31 35 31 37  36 36 35 37 33 37 39 0A   {...1517 6657379. 
00000010  61 67 10 13 89 7B                                  ag..â{

00000000  01 04 00 00 00 32 71 DF                            .....2qﬂ 

00000000  01 04 64 08 12 00 05 00  09 00 15 00 30 00 01 00   ..d..... ....0... 
00000010  07 03 3B 02 91 02 46 01  F4 03 4B 01 41 01 D8 01   ..;.ë.F. Ù.K.A.ÿ. 
00000020  51 03 D9 00 B5 B2 03 43  02 00 01 95 BA F3 CF 41   Q.Ÿ.µ≤.C ...ï∫ÛœA 
00000030  11 00 01 8E 3E B4 78 3E  7F 00 00 03 DE 00 00 00   ...é>¥x> ...ﬁ... 
00000040  00 67 44 43 96 00 03 A1  5C 99 65 41 21 00 0D 93   .gDCñ..° \ôeA!..ì 
00000050  7F 00 00 00 00 00 13 00  40 00 00 00 00 00 00 00   ....... @....... 
00000060  00 03 84 03 E8 00 00 E0  78                        ..Ñ.Ë..‡ x

00000000  01 02 00 00 00 20 79 D2                            ..... y“ 

00000000  01 02 04 13 00 40 00 CE  A6 7B 01 00 16 31 35 31   .....@.Œ ¶{...151 
00000010  37 36 36 35 37 33 37 39  0A 61 67 10 13 89 7B 7B   76657379 .ag..â{{ 
00000020  01 00 16 31 35 31 37 36  36 35 37 33 37 39 0A 61   ...15176 657379.a 
00000030  67 10 13 89 7B                                     g..â{

00000000  01 04 00 00 00 32 71 DF                            .....2qﬂ 

00000000  01 04 64 07 D3 00 09 00  09 00 15 00 35 00 04 00   ..d.”... ....5... 
00000010  07 03 3A 02 90 02 47 01  F6 03 47 01 41 01 DF 01   ..:.ê.G. ˆ.G.A.ﬂ. 
00000020  52 03 D9 00 BA 4F F5 43  01 00 01 95 C6 72 32 41   R.Ÿ.∫OıC ...ï∆r2A 
00000030  10 00 01 8E 49 31 13 3F  A7 00 00 03 DE 00 00 00   ...éI1.? ß...ﬁ... 
00000040  00 70 CE 43 97 00 03 A1  74 C2 7E 41 20 00 0D 93   .pŒCó..° t¬~A ..ì 
00000050  90 00 00 00 00 00 13 00  40 00 00 00 00 00 00 00   ê....... @....... 
00000060  00 03 84 03 E8 00 00 65  20                        ..Ñ.Ë..e  

00000000  01 02 00 00 00 20 79 D2                            ..... y“ 

00000000  01 02 04 13 00 40 00 CE  A6 7B 01 00 16 31 35 31   .....@.Œ ¶{...151 
00000010  37 36 36 35 37 33 37 39  0A 61 67 10 13 89 7B 7B   76657379 .ag..â{{ 
00000020  01 00 16 31 35 31 37 36  36 35 37 33 37 39 0A 61   ...15176 657379.a 
00000030  67 10 13 89 7B                                     g..â{

00000000  01 04 00 00 00 32 71 DF                            .....2qﬂ 

00000000  01 04 64 07 F8 00 09 00  09 00 15 00 3A 00 03 00   ..d.¯... ....:... 
00000010  07 03 3C 02 93 02 48 01  F4 03 47 01 3F 01 DE 01   ..<.ì.H. Ù.G.?.ﬁ. 
00000020  50 03 D9 00 C0 4F F5 43  01 00 01 95 D2 94 34 41   P.Ÿ.¿OıC ...ï“î4A 
00000030  0F 00 01 8E 53 09 0C 3D  EC 00 00 03 DE 00 00 00   ...éS..= Ï...ﬁ... 
00000040  00 A3 29 43 93 00 03 A1  8B 42 91 41 22 00 0D 93   .£)Cì..° ãBëA"..ì 
00000050  A0 00 00 00 00 00 13 00  40 00 00 00 00 00 00 00   †....... @....... 
00000060  00 03 84 03 E8 00 00 7C  BE                        ..Ñ.Ë..| æ

00000000  01 02 00 00 00 20 79 D2                            ..... y“ 

00000000  01 02 04 13 00 40 00 CE  A6 7B 01 00 16 31 35 31   .....@.Œ ¶{...151 
00000010  37 36 36 35 37 33 37 39  0A 61 67 10 13 89 7B 7B   76657379 .ag..â{{ 
00000020  01 00 16 31 35 31 37 36  36 35 37 33 37 39 0A 61   ...15176 657379.a 
00000030  67 10 13 89 7B                                     g..â{

00000000  01 04 00 00 00 32 71 DF  01 02 00 00 00 20 79 D2   .....2qﬂ ..... y“ 

00000000  7B 01 00 16 31 35 31 37  36 36 35 37 33 37 39 0A   {...1517 6657379. 
00000010  61 67 10 13 89 7B 00 39  0A 61 67 10 13 89 7B 7B   ag..â{.9 .ag..â{{ 
00000020  01 00 16 31 35 31 37 36  36 35 37 33 37 39 0A 61   ...15176 657379.a 
00000030  67 10 13 89 7B 00 0C 3D  EC 00 00 03 DE 00 00 00   g..â{..= Ï...ﬁ... 
00000040  00 A3 29 43 93 00 03 A1  8B 42 91 41 22 00 0D 93   .£)Cì..° ãBëA"..ì 
00000050  A0 00 00 00 00 00 13 00  40 00 00 00 00 00 00 00   †....... @....... 
00000060  00 03 84 03 E8 00 00 7C  BE 00 02 00 1B 00 00 00   ..Ñ.Ë..| æ....... 
00000070  00 00 00 00 00 00 00 03  20 00 00 00 00 F6 BC 7B   ........  ....ˆº{ 
00000080  01 00 16 31 35 31 37 36  36 35 38 36 31 37 0A 61   ...15176 658617.a 
00000090  67 12 13 89 7B 7B 01 00  16 31 35 31 37 36 36 35   g..â{{.. .1517665 
000000A0  38 36 31 37 0A 61 67 12  13 89 7B 7B 01 00 16 31   8617.ag. .â{{...1 
000000B0  35 31 37 36 36 35 38 36  31 37 0A 61 67 12 13 89   51766586 17.ag..â 
000000C0  7B 7B 01 00 16 31 35 31  37 36 36 35 38 36 31 37   {{...151 76658617 
000000D0  0A 61 67 12 13 89 7B 7B  01 00 16 31 35 31 37 36   .ag..â{{ ...15176 
000000E0  36 35 38 36 31 37 0A 61  67 12 13 89 7B 7B 01 00   658617.a g..â{{.. 
000000F0  16 31 35 31 37 36 36 35  38 36 31 37 0A 61 67 12   .1517665 8617.ag. 
00000100  13 89 7B 7B 01 00 16 31  35 31 37 36 36 35 38 36   .â{{...1 51766586 
00000110  31 37 0A 61 67 12 13 89  7B 7B 01 00 16 31 35 31   17.ag..â {{...151 
00000120  37 36 36 35 38 36 31 37  0A 61 67 12 13 89 7B 7B   76658617 .ag..â{{ 
00000130  01 00 16 31 35 31 37 36  36 35 38 36 31 37 0A 61   ...15176 658617.a 
00000140  67 12 13 89 7B 7B 01 00  16 31 35 31 37 36 36 35   g..â{{.. .1517665 
00000150  38 36 31 37 0A 61 67 12  13 89 7B 7B 01 00 16 31   8617.ag. .â{{...1 
00000160  35 31 37 36 36 35 38 36  31 37 0A 61 67 12 13 89   51766586 17.ag..â 
00000170  7B 7B 01 00 16 31 35 31  37 36 36 35 38 36 31 37   {{...151 76658617 
00000180  0A 61 67 12 13 89 7B 00  06 13 89 7B 7B 01 00 16   .ag..â{. ..â{{... 
00000190  31 35 31 37 36 36 35 37  30 35 39 0A 61 67 06 13   15176657 059.ag.. 
000001A0  89 7B 7B 01 00 16 31 35  31 37 36 36 35 37 30 35   â{{...15 17665705 
000001B0  39 0A 61 67 06 13 89 7B  7B 01 00 16 31 35 31 37   9.ag..â{ {...1517 
000001C0  36 36 35 37 30 35 39 0A  61 67 06 13 89 7B 7B 01   6657059. ag..â{{. 
000001D0  00 16 31 35 31 37 36 36  35 37 30 35 39 0A 61 67   ..151766 57059.ag 
000001E0  06 13 89 7B 7B 01 00 16  31 35 31 37 36 36 35 37   ..â{{... 15176657 
000001F0  30 35 39 0A 61 67 06 13  89 7B 7B 01 00 16 31 35   059.ag.. â{{...15 
00000200  31 37 36 36 35 37 30 35  39 0A 61 67 06 13 89 7B   17665705 9.ag..â{ 
00000210  7B 01 00 16 31 35 31 37  36 36 35 37 30 35 39 0A   {...1517 6657059. 
00000220  61 67 06 13 89 7B 7B 01  00 16 31 35 31 37 36 36   ag..â{{. ..151766 
00000230  35 37 30 35 39 0A 61 67  06 13 89 7B 7B 01 00 16   57059.ag ..â{{... 
00000240  31 35 31 37 36 36 35 37  30 35 39 0A 61 67 06 13   15176657 059.ag.. 
00000250  89 7B 00 8D 28 82 19 89  F4 72 43 9B 4E 9E 23 8E   â{.ç(Ç.â ÙrCõNû#é 
00000260  AD 91 40 75 85 9F DD 83  B6 90 4C 57 B3 5E A2 73   ≠ë@uÖü›É ∂êLW≥^¢s 
00000270  92 75 80 5B 2D 82 A5 78  86 7A B4 97 DF 9A 2D 76   íuÄ[-Ç•x Üz¥óﬂö-v 
00000280  D1 98 F9 52 53 67 6C 70  0F 7F 3E 94 AF 94 B8 94   —ò˘RSglp .>îØî∏î 
00000290  48 95 CA 85 AD 85 E3 85  54 85 E8 85 22 85 F5 85   Hï Ö≠Ö„Ö TÖËÖ"ÖıÖ 
000002A0  14 85 08 85 00 85 FD 84  17 86 67 84 39 84 2F 84   .Ö.Ö.Ö˝Ñ .ÜgÑ9Ñ/Ñ 
000002B0  21 84 1E 84 4C 86 F6 83  E2 83 63 86 68 86 84 86   !Ñ.ÑLÜˆÉ ‚ÉcÜhÜÑÜ 
000002C0  86 86 82 83 AB 86 79 83  BE 86 C2 86 C3 86 D6 86   ÜÜÇÉ´ÜyÉ æÜ¬Ü√Ü÷Ü 
000002D0  FD 86 0C 87 2F 87 FE 82  EA 82 E9 82 42 87 DD 82   ˝Ü.á/á˛Ç ÍÇÈÇBá›Ç 
000002E0  8C 87 95 87 55 82 51 82  4A 82 F1 81 DE 87 D5 81   åáïáUÇQÇ JÇÒÅﬁá’Å 
000002F0  CF 81 E6 87 94 81 77 81  3F 81 C9 80 C8 80 C7 80   œÅÊáîÅwÅ ?Å…Ä»Ä«Ä 
00000300  B8 80 A6 80 8C 88 90 88  91 80 5B 80 AF 88 B9 88   ∏Ä¶Äåàêà ëÄ[ÄØàπà 
00000310  DC 88 E6 88 CD 7F C9 7F  93 7F 7C 7F 77 7F 29 89   ‹àÊàÕ… ì|w)â 
00000320  3D 7F 3E 89 43 89 45 89  4E 89 4F 89 52 89 63 89   =>âCâEâ NâOâRâcâ 
00000330  6C 89 6E 89 82 89 87 89  8D 89 B5 89 7D 7E 74 7E   lânâÇâáâ çâµâ}~t~ 
00000340  43 7E 2A 7E 0D 7E F6 7D  E8 7D E5 7D BC 7D B3 7D   C~*~.~ˆ} Ë}Â}º}≥} 
00000350  86 7D 81 7D 63 7D 54 7D  46 7D 34 7D 26 7D 21 7D   Ü}Å}c}T} F}4}&}!} 
00000360  EA 7C D2 7C C4 7C BA 7C  A8 7C 1C 8A 8A 7C 84 7C   Í|“|ƒ|∫| ®|.ää|Ñ| 
00000370  83 7C 69 7C 53 7C 19 7C  F3 7B F0 7B AF 7B A5 7B   É|i|S|.| Û{{Ø{•{ 
00000380  86 7B 84 7B 81 7B 56 8A  59 8A 46 7B 23 7B 81 8A   Ü{Ñ{Å{Vä YäF{#{Åä 
00000390  13 7B E1 7A DD 7A 96 8A  A7 8A 89 7A 87 7A 6E 7A   .{·z›zñä ßäâzáznz 
000003A0  2B 7A 28 7A 1F 7A 16 7A  FF 79 E1 79 DA 79 D8 8A   +z(z.z.z ˇy·y⁄yÿä 
000003B0  99 79 86 79 4A 79 21 79  FB 78 E6 78 17 8B 24 8B   ôyÜyJy!y ˚xÊx.ã$ã 
000003C0  86 78 65 78 35 78 52 8B  F2 77 8A 8B 2A 77 4D 8C   Üxex5xRã Úwäã*wMå 
000003D0  5D 8C 69 8C 70 8C CB 76  C3 76 95 76 80 76 8F 8C   ]åiåpåÀv √vïvÄvèå 
000003E0  7C 76 79 76 76 76 5F 76  5D 76 5B 76 9D 8C B1 8C   |vyvvv_v ]v[vùå±å 
000003F0  B6 8C FA 75 ED 75 C1 8C  D3 8C D4 8C BA 75 AA 75   ∂å˙uÌu¡å ”å‘å∫u™u 
00000400  82 13 81 00 01 00 62 01  78 01 39 00 00 72 B7 00   Ç.Å...b. x.9..r∑. 
00000410  14 8D EA 74 DF 74 DD 74  B8 74 78 74 32 74 23 74   .çÍtﬂt›t ∏txt2t#t 
00000420  15 74 FC 73 E4 73 CC 73  C1 8D A4 73 A3 73 90 73   .t¸s‰sÃs ¡ç§s£sês 
00000430  D8 8D 71 73 5B 73 59 73  58 73 56 73 3C 73 35 73   ÿçqs[sYs XsVs<s5s 
00000440  F0 8D 04 8E 0B 73 08 73  FD 72 DB 72 BB 72 AE 72   ç.é.s.s ˝r€rªrÆr 
00000450  A6 72 95 72 3E 8E 87 72  6C 72 55 8E 54 72 53 72   ¶rïr>éár lrUéTrSr 
00000460  51 72 73 8E 02 72 83 8E  84 8E CC 71 9B 71 9A 71   Qrsé.rÉé ÑéÃqõqöq 
00000470  7F 71 4F 71 A6 70 F0 8E  83 70 F7 8E 15 70 F5 6F   qOq¶pé Ép˜é.pıo 
00000480  F1 6F 77 6F 51 6F 29 8F  39 8F EE 6E ED 6E 3D 8F   ÒowoQo)è 9èÓnÌn=è 
00000490  50 8F 8A 6E 74 6E 62 6E  A1 8F 50 6E A6 8F A7 8F   Pèäntnbn °èPn¶èßè 
000004A0  AC 8F AE 8F AF 8F 00 6E  FF 6D F2 6D 29 90 2C 90   ¨èÆèØè.n ˇmÚm)ê,ê 
000004B0  89 90 8A 90 A0 90 AB 90  B2 90 CD 6C E3 90 F6 90   âêäê†ê´ê ≤êÕl„êˆê 
000004C0  01 91 73 6C 28 91 2A 91  43 6C 37 6C F4 6B AF 6B   .ësl(ë*ë Cl7lÙkØk 
000004D0  69 6B 68 6B C6 91 1B 6B  02 6B B3 6A A6 6A 98 6A   ikhk∆ë.k .k≥j¶jòj 
000004E0  DB 91 DF 91 19 6A 00 92  8C 69 08 92 11 92 4D 69   €ëﬂë.j.í åi.í.íMi 
000004F0  45 69 15 69 7B 01 00 16  31 35 31 37 36 36 35 37   Ei.i{... 15176657 
00000500  33 37 39 0A 61 67 10 13  89 7B                     379.ag.. â{

00000000  01 04 00 00 00 32 71 DF  01 02 00 00 00 20 79 D2   .....2qﬂ ..... y“ 

00000000  7B 01 00 16 31 35 31 37  36 36 35 37 33 37 39 0A   {...1517 6657379. 
00000010  61 67 10 13 89 7B                                  ag..â{

00000000  01 04 00 00 00 32 71 DF  01 02 00 00 00 20 79 D2   .....2qﬂ ..... y“ 

00000000  7B 01 00 16 31 35 31 37  36 36 35 37 33 37 39 0A   {...1517 6657379. 
00000010  61 67 10 13 89 7B 00 39  0A 61 67 10 13 89 7B 7B   ag..â{.9 .ag..â{{ 
00000020  01 00 16 31 35 31 37 36  36 35 37 33 37 39 0A 61   ...15176 657379.a 
00000030  67 10 13 89 7B 00 0C 3D  EC 00 00 03 DE 00 00 00   g..â{..= Ï...ﬁ... 
00000040  00 A3 29 43 93 00 03 A1  8B 42 91 41 22 00 0D 93   .£)Cì..° ãBëA"..ì 
00000050  A0 00 00 00 00 00 13 00  40 00 00 00 00 00 00 00   †....... @....... 
00000060  00 03 84 03 E8 00 00 7C  BE 00 02 00 1B 00 00 00   ..Ñ.Ë..| æ....... 
00000070  00 00 00 00 00 00 00 03  20 00 00 00 00 F6 BC 7B   ........  ....ˆº{ 
00000080  01 00 16 31 35 31 37 36  36 35 38 36 31 37 0A 61   ...15176 658617.a 
00000090  67 12 13 89 7B 7B 01 00  16 31 35 31 37 36 36 35   g..â{{.. .1517665 
000000A0  38 36 31 37 0A 61 67 12  13 89 7B 7B 01 00 16 31   8617.ag. .â{{...1 
000000B0  35 31 37 36 36 35 38 36  31 37 0A 61 67 12 13 89   51766586 17.ag..â 
000000C0  7B 7B 01 00 16 31 35 31  37 36 36 35 38 36 31 37   {{...151 76658617 
000000D0  0A 61 67 12 13 89 7B 7B  01 00 16 31 35 31 37 36   .ag..â{{ ...15176 
000000E0  36 35 38 36 31 37 0A 61  67 12 13 89 7B 7B 01 00   658617.a g..â{{.. 
000000F0  16 31 35 31 37 36 36 35  38 36 31 37 0A 61 67 12   .1517665 8617.ag. 
00000100  13 89 7B 7B 01 00 16 31  35 31 37 36 36 35 38 36   .â{{...1 51766586 
00000110  31 37 0A 61 67 12 13 89  7B 7B 01 00 16 31 35 31   17.ag..â {{...151 
00000120  37 36 36 35 38 36 31 37  0A 61 67 12 13 89 7B 7B   76658617 .ag..â{{ 
00000130  01 00 16 31 35 31 37 36  36 35 38 36 31 37 0A 61   ...15176 658617.a 
00000140  67 12 13 89 7B 7B 01 00  16 31 35 31 37 36 36 35   g..â{{.. .1517665 
00000150  38 36 31 37 0A 61 67 12  13 89 7B 7B 01 00 16 31   8617.ag. .â{{...1 
